! Mini-Circuits								
! S2P DATA File Format								
! Type: BAND PASS FILTER								
! Model: ABF-7R75G+								
! All S Parameters are in dB deg format								
! TEST CONDITIONS: INPUT POWER = 0 dBm - +25 deg C
# MHZ S DB R 50
!Frequency          S11 dB    S11 DEG     S21 dB    S21 DEG     S12 dB    S12 DEG     S22 dB    S22 DEG
  10.0000     -6.930815E-002  1.788035E+002 -9.940222E+001  6.118770E+001 -1.146315E+002 -2.341754E+001 -1.452127E-001  1.786554E+002
  20.0000     -7.280410E-002  1.777385E+002 -1.291859E+002  4.184109E+001 -1.039189E+002 -6.869301E+001 -1.534833E-001  1.775046E+002
  30.0000     -9.935423E-002  1.767884E+002 -1.022364E+002  3.731352E+001 -1.029469E+002  1.115288E+001 -1.623535E-001  1.763574E+002
  40.0000     -9.917811E-002  1.759402E+002 -9.794742E+001  9.239171E+001 -1.008209E+002  8.626093E+001 -1.709514E-001  1.752574E+002
  50.0000     -1.000535E-001  1.749828E+002 -9.440758E+001  7.598238E+001 -9.631880E+001 -6.776846E+001 -1.766447E-001  1.741838E+002
 100.0000     -5.342219E-002  1.699539E+002 -9.414784E+001  7.640851E+001 -9.390560E+001  7.940718E+001 -1.255068E-001  1.684143E+002
 150.0000     -1.324637E-001  1.652904E+002 -9.053046E+001  7.896423E+001 -9.011131E+001  7.835765E+001 -1.971792E-001  1.629129E+002
 200.0000     -1.578760E-001  1.607485E+002 -8.820871E+001  7.767262E+001 -8.832349E+001  8.139914E+001 -2.345267E-001  1.575086E+002
 250.0000     -1.820950E-001  1.560231E+002 -8.663655E+001  7.683627E+001 -8.619443E+001  7.504395E+001 -2.540472E-001  1.520407E+002
 300.0000     -2.047754E-001  1.514109E+002 -8.521922E+001  7.921386E+001 -8.395015E+001  7.865178E+001 -2.858770E-001  1.466735E+002
 350.0000     -2.158419E-001  1.468231E+002 -8.439690E+001  7.596930E+001 -8.268338E+001  7.703148E+001 -2.995096E-001  1.412026E+002
 400.0000     -2.342674E-001  1.422015E+002 -8.298786E+001  7.484298E+001 -8.310103E+001  7.310699E+001 -3.154327E-001  1.357574E+002
 450.0000     -2.493629E-001  1.375432E+002 -8.074983E+001  7.600162E+001 -8.015892E+001  7.211490E+001 -3.320777E-001  1.303511E+002
 500.0000     -2.544468E-001  1.329285E+002 -8.074362E+001  6.878746E+001 -8.005795E+001  7.472295E+001 -3.429465E-001  1.249896E+002
 550.0000     -2.641569E-001  1.282710E+002 -7.892522E+001  7.047784E+001 -7.948518E+001  6.958334E+001 -3.542920E-001  1.195294E+002
 600.0000     -2.670040E-001  1.236682E+002 -7.881888E+001  7.078213E+001 -7.893746E+001  6.811765E+001 -3.637432E-001  1.141346E+002
 650.0000     -2.911996E-001  1.189900E+002 -7.890356E+001  6.881631E+001 -7.747607E+001  6.985567E+001 -3.726720E-001  1.087439E+002
 700.0000     -2.845045E-001  1.142793E+002 -7.782027E+001  6.439984E+001 -7.772440E+001  6.431568E+001 -3.765257E-001  1.033143E+002
 750.0000     -2.844160E-001  1.097894E+002 -7.707654E+001  6.893979E+001 -7.674718E+001  6.212461E+001 -3.756896E-001  9.789555E+001
 800.0000     -3.034872E-001  1.050684E+002 -7.558139E+001  7.252917E+001 -7.551807E+001  6.019030E+001 -3.900616E-001  9.247044E+001
 850.0000     -2.935384E-001  1.002809E+002 -7.528876E+001  6.521896E+001 -7.606143E+001  6.742648E+001 -3.865464E-001  8.699268E+001
 900.0000     -3.068218E-001  9.574058E+001 -7.524647E+001  6.636918E+001 -7.471413E+001  5.639753E+001 -3.851021E-001  8.155044E+001
 950.0000     -3.102074E-001  9.097054E+001 -7.507089E+001  6.018938E+001 -7.420261E+001  5.362661E+001 -3.938003E-001  7.615452E+001
1000.0000     -3.016274E-001  8.632979E+001 -7.470359E+001  5.975177E+001 -7.380933E+001  5.328786E+001 -3.917547E-001  7.068032E+001
1050.0000     -3.116798E-001  8.160834E+001 -7.402101E+001  5.533696E+001 -7.357230E+001  5.876943E+001 -3.865418E-001  6.518782E+001
1100.0000     -3.152693E-001  7.690416E+001 -7.384439E+001  5.663223E+001 -7.343275E+001  5.414383E+001 -3.887107E-001  5.971099E+001
1150.0000     -3.075514E-001  7.223112E+001 -7.293979E+001  4.387277E+001 -7.280692E+001  6.310932E+001 -3.824757E-001  5.426166E+001
1200.0000     -3.076528E-001  6.741975E+001 -7.293297E+001  4.501415E+001 -7.293925E+001  5.631786E+001 -3.809910E-001  4.880177E+001
1250.0000     -3.056004E-001  6.267619E+001 -7.162688E+001  4.310141E+001 -7.229095E+001  5.470660E+001 -3.793110E-001  4.330129E+001
1300.0000     -3.149322E-001  5.800795E+001 -7.212869E+001  4.872419E+001 -7.215178E+001  5.118676E+001 -3.690911E-001  3.779517E+001
1350.0000     -3.104813E-001  5.316803E+001 -7.175214E+001  5.173787E+001 -7.176908E+001  4.345164E+001 -3.722439E-001  3.228590E+001
1400.0000     -2.980547E-001  4.844987E+001 -7.158715E+001  4.465968E+001 -7.056979E+001  4.316565E+001 -3.643216E-001  2.676237E+001
1450.0000     -3.161311E-001  4.358257E+001 -7.103215E+001  4.334931E+001 -7.049102E+001  3.844854E+001 -3.648318E-001  2.125776E+001
1500.0000     -2.963175E-001  3.879013E+001 -6.967180E+001  3.488063E+001 -7.061206E+001  3.943512E+001 -3.559135E-001  1.572947E+001
1550.0000     -2.960149E-001  3.408746E+001 -7.034077E+001  3.765307E+001 -6.961198E+001  3.655250E+001 -3.468625E-001  1.017128E+001
1600.0000     -3.267715E-001  2.919491E+001 -7.073741E+001  4.453172E+001 -6.981574E+001  3.930559E+001 -3.385972E-001  4.681643E+000
1650.0000     -2.846761E-001  2.435449E+001 -7.050166E+001  3.927610E+001 -6.968107E+001  4.277149E+001 -3.354548E-001 -9.301901E-001
1700.0000     -2.907835E-001  1.964045E+001 -6.901026E+001  3.331443E+001 -6.932458E+001  4.187733E+001 -3.253590E-001 -6.501061E+000
1750.0000     -3.002976E-001  1.460696E+001 -6.822286E+001  3.080707E+001 -6.898116E+001  3.519955E+001 -3.233052E-001 -1.202422E+001
1800.0000     -2.766401E-001  9.699865E+000 -6.848252E+001  2.853246E+001 -6.816011E+001  3.574488E+001 -3.207975E-001 -1.759820E+001
1850.0000     -2.778203E-001  4.873234E+000 -6.822820E+001  2.918069E+001 -6.820802E+001  2.936540E+001 -3.154260E-001 -2.318678E+001
1900.0000     -2.878843E-001 -1.108651E-001 -6.878619E+001  3.649828E+001 -6.873000E+001  1.712401E+001 -3.122002E-001 -2.875571E+001
1950.0000     -2.737708E-001 -4.977737E+000 -6.743344E+001  2.285472E+001 -6.740325E+001  3.308995E+001 -3.074377E-001 -3.433871E+001
2000.0000     -2.710623E-001 -9.976075E+000 -6.628326E+001  1.948636E+001 -6.726157E+001  2.966341E+001 -2.995191E-001 -3.990696E+001
2050.0000     -2.556563E-001 -1.490447E+001 -6.921211E+001  2.726853E+001 -6.738773E+001  1.390950E+001 -2.965290E-001 -4.550953E+001
2100.0000     -2.787189E-001 -1.990243E+001 -6.740121E+001  2.357408E+001 -6.717242E+001  1.513028E+001 -2.893517E-001 -5.104116E+001
2150.0000     -2.570675E-001 -2.489283E+001 -6.489558E+001  1.946969E+001 -6.617441E+001  2.563338E+001 -2.910343E-001 -5.664960E+001
2200.0000     -2.497064E-001 -2.975521E+001 -6.695485E+001  1.195344E+001 -6.591191E+001  2.389884E+001 -2.765152E-001 -6.231448E+001
2250.0000     -2.650756E-001 -3.489301E+001 -6.818849E+001  1.183062E+001 -6.559811E+001  1.025353E+001 -2.753459E-001 -6.788046E+001
2300.0000     -2.343316E-001 -3.994937E+001 -6.504426E+001  1.616017E+001 -6.660370E+001  5.767441E+000 -2.762536E-001 -7.346759E+001
2350.0000     -2.331198E-001 -4.483936E+001 -6.452003E+001  1.274539E+001 -6.520759E+001  1.856408E+001 -2.763251E-001 -7.910792E+001
2400.0000     -2.381736E-001 -5.000608E+001 -6.679845E+001  1.976999E-001 -6.438068E+001  1.350770E+001 -2.791752E-001 -8.462594E+001
2450.0000     -2.238412E-001 -5.511964E+001 -6.529296E+001  5.816153E+000 -6.521914E+001  6.389117E-001 -2.772943E-001 -9.027397E+001
2500.0000     -2.092725E-001 -6.013662E+001 -6.246315E+001  1.054457E+001 -6.611188E+001 -4.253258E+000 -2.915226E-001 -9.585949E+001
2550.0000     -2.275174E-001 -6.529396E+001 -6.488685E+001 -3.064727E+000 -6.354547E+001  6.261490E+000 -2.750792E-001 -1.013484E+002
2600.0000     -2.220643E-001 -7.046696E+001 -6.531396E+001 -3.155035E+000 -6.270019E+001  2.757337E+000 -2.869064E-001 -1.070077E+002
2650.0000     -2.123937E-001 -7.559914E+001 -6.110530E+001  6.432333E+000 -6.522443E+001 -6.770511E+000 -2.875696E-001 -1.124546E+002
2700.0000     -2.247391E-001 -8.071603E+001 -6.302478E+001 -2.159438E+000 -6.487595E+001 -4.957334E+000 -2.859776E-001 -1.181361E+002
2750.0000     -2.228613E-001 -8.598627E+001 -6.635760E+001 -1.261819E+001 -6.200103E+001 -6.493138E+000 -2.918581E-001 -1.236469E+002
2800.0000     -2.123407E-001 -9.115849E+001 -6.127785E+001  1.619578E+000 -6.187223E+001 -7.778287E+000 -3.018019E-001 -1.291520E+002
2850.0000     -2.233886E-001 -9.627054E+001 -6.226997E+001 -8.486995E+000 -6.367009E+001 -1.328283E+001 -3.058037E-001 -1.347043E+002
2900.0000     -2.385263E-001 -1.015999E+002 -6.497512E+001 -2.177081E+001 -6.221204E+001 -2.162419E+001 -3.117318E-001 -1.401969E+002
2950.0000     -2.172571E-001 -1.069323E+002 -6.150080E+001 -1.001626E+001 -6.067687E+001 -1.826084E+001 -3.354363E-001 -1.456665E+002
3000.0000     -2.233594E-001 -1.119354E+002 -6.044667E+001 -1.306083E+001 -6.039619E+001 -1.472805E+001 -3.211456E-001 -1.513080E+002
3050.0000     -2.353702E-001 -1.173256E+002 -6.241016E+001 -2.570024E+001 -6.103817E+001 -2.148320E+001 -3.404286E-001 -1.566797E+002
3100.0000     -2.265052E-001 -1.225759E+002 -6.119551E+001 -2.361703E+001 -6.026879E+001 -2.097974E+001 -3.501574E-001 -1.622205E+002
3150.0000     -2.416385E-001 -1.277927E+002 -5.961518E+001 -2.102060E+001 -5.885080E+001 -2.228892E+001 -3.623378E-001 -1.676883E+002
3200.0000     -2.535003E-001 -1.331183E+002 -6.000150E+001 -2.947231E+001 -5.964701E+001 -2.445776E+001 -3.716331E-001 -1.730987E+002
3250.0000     -2.352937E-001 -1.384202E+002 -5.929088E+001 -2.822901E+001 -5.953893E+001 -2.543747E+001 -3.842233E-001 -1.786060E+002
3300.0000     -2.600105E-001 -1.436423E+002 -5.887105E+001 -2.975336E+001 -5.860960E+001 -2.950180E+001 -3.922517E-001  1.759809E+002
3350.0000     -2.610030E-001 -1.490981E+002 -5.845124E+001 -3.261396E+001 -5.849048E+001 -3.137341E+001 -4.059518E-001  1.705122E+002
3400.0000     -2.717338E-001 -1.544439E+002 -5.793919E+001 -3.371595E+001 -5.798468E+001 -3.327282E+001 -4.178306E-001  1.650889E+002
3450.0000     -2.748131E-001 -1.597626E+002 -5.745168E+001 -3.631017E+001 -5.754684E+001 -3.555884E+001 -4.366484E-001  1.596948E+002
3500.0000     -2.836121E-001 -1.650949E+002 -5.699005E+001 -3.872874E+001 -5.703278E+001 -3.812495E+001 -4.459511E-001  1.541774E+002
3550.0000     -3.161142E-001 -1.705420E+002 -5.648886E+001 -4.079442E+001 -5.651695E+001 -4.007509E+001 -4.604358E-001  1.487849E+002
3600.0000     -3.147739E-001 -1.759541E+002 -5.596841E+001 -4.286276E+001 -5.601058E+001 -4.252920E+001 -4.713221E-001  1.433761E+002
3650.0000     -3.131747E-001  1.787629E+002 -5.533814E+001 -4.466800E+001 -5.539869E+001 -4.459470E+001 -4.775566E-001  1.378651E+002
3700.0000     -3.517832E-001  1.730911E+002 -5.480510E+001 -4.704917E+001 -5.489539E+001 -4.643910E+001 -4.936690E-001  1.325445E+002
3750.0000     -3.329481E-001  1.676919E+002 -5.428421E+001 -4.936496E+001 -5.432612E+001 -4.909209E+001 -5.200581E-001  1.270696E+002
3800.0000     -3.762282E-001  1.623239E+002 -5.359991E+001 -5.138296E+001 -5.369160E+001 -5.099488E+001 -5.171674E-001  1.215997E+002
3850.0000     -3.774868E-001  1.566310E+002 -5.299137E+001 -5.360879E+001 -5.307178E+001 -5.299002E+001 -5.382393E-001  1.162202E+002
3900.0000     -3.951375E-001  1.512917E+002 -5.236759E+001 -5.610393E+001 -5.236378E+001 -5.579615E+001 -5.490423E-001  1.106334E+002
3950.0000     -4.244951E-001  1.456574E+002 -5.168147E+001 -5.758473E+001 -5.171501E+001 -5.765172E+001 -5.618576E-001  1.052432E+002
4000.0000     -4.221038E-001  1.401814E+002 -5.098974E+001 -6.030334E+001 -5.101841E+001 -6.003647E+001 -5.775182E-001  9.969829E+001
4050.0000     -4.472266E-001  1.345385E+002 -5.028570E+001 -6.263245E+001 -5.028123E+001 -6.210615E+001 -5.864375E-001  9.414519E+001
4100.0000     -4.618506E-001  1.290806E+002 -4.955795E+001 -6.446273E+001 -4.955936E+001 -6.411718E+001 -5.994993E-001  8.871523E+001
4150.0000     -4.749331E-001  1.234044E+002 -4.875461E+001 -6.734088E+001 -4.874086E+001 -6.675325E+001 -6.111771E-001  8.295538E+001
4200.0000     -5.022340E-001  1.177181E+002 -4.795414E+001 -6.957844E+001 -4.797154E+001 -6.934837E+001 -6.177647E-001  7.726714E+001
4250.0000     -5.065346E-001  1.119729E+002 -4.710203E+001 -7.174078E+001 -4.716360E+001 -7.144540E+001 -6.443377E-001  7.172147E+001
4300.0000     -5.322205E-001  1.061827E+002 -4.618096E+001 -7.436105E+001 -4.625334E+001 -7.380216E+001 -6.441278E-001  6.582361E+001
4350.0000     -5.577953E-001  1.003357E+002 -4.533969E+001 -7.670020E+001 -4.536444E+001 -7.616065E+001 -6.450797E-001  6.015095E+001
4400.0000     -5.575560E-001  9.450054E+001 -4.442430E+001 -7.936118E+001 -4.440825E+001 -7.911825E+001 -6.717544E-001  5.418457E+001
4450.0000     -5.835270E-001  8.865191E+001 -4.343240E+001 -8.175035E+001 -4.344125E+001 -8.132821E+001 -6.651906E-001  4.816584E+001
4500.0000     -6.024308E-001  8.262128E+001 -4.241970E+001 -8.434519E+001 -4.248569E+001 -8.399536E+001 -6.827781E-001  4.221524E+001
4550.0000     -5.890925E-001  7.650472E+001 -4.133682E+001 -8.749583E+001 -4.138441E+001 -8.712131E+001 -7.006165E-001  3.593511E+001
4600.0000     -6.397833E-001  7.041172E+001 -4.029329E+001 -8.992766E+001 -4.031138E+001 -8.957649E+001 -6.814485E-001  2.960952E+001
4650.0000     -6.472427E-001  6.419357E+001 -3.911015E+001 -9.298965E+001 -3.918007E+001 -9.245478E+001 -7.145119E-001  2.334123E+001
4700.0000     -6.515532E-001  5.790585E+001 -3.793833E+001 -9.644473E+001 -3.798514E+001 -9.602180E+001 -7.196360E-001  1.653523E+001
4750.0000     -6.738144E-001  5.162912E+001 -3.673907E+001 -9.907322E+001 -3.678393E+001 -9.871981E+001 -7.029546E-001  9.938402E+000
4800.0000     -6.884822E-001  4.495392E+001 -3.535978E+001 -1.025469E+002 -3.544485E+001 -1.021776E+002 -7.332743E-001  3.016433E+000
4850.0000     -6.987698E-001  3.825218E+001 -3.410324E+001 -1.064594E+002 -3.414669E+001 -1.060457E+002 -7.194257E-001 -4.253615E+000
4900.0000     -7.262513E-001  3.146070E+001 -3.272090E+001 -1.098759E+002 -3.274661E+001 -1.093519E+002 -7.427970E-001 -1.153716E+001
4950.0000     -7.387618E-001  2.452016E+001 -3.118580E+001 -1.140387E+002 -3.121685E+001 -1.137534E+002 -7.491851E-001 -1.937849E+001
5000.0000     -7.421558E-001  1.727697E+001 -2.972631E+001 -1.183582E+002 -2.969547E+001 -1.180694E+002 -7.431927E-001 -2.742451E+001
5050.0000     -7.534523E-001  9.837908E+000 -2.806973E+001 -1.229092E+002 -2.810588E+001 -1.225708E+002 -7.790117E-001 -3.587315E+001
5100.0000     -7.740689E-001  2.115424E+000 -2.640089E+001 -1.280175E+002 -2.640620E+001 -1.278852E+002 -7.648612E-001 -4.505618E+001
5150.0000     -7.837657E-001 -5.915506E+000 -2.462995E+001 -1.334225E+002 -2.463042E+001 -1.329687E+002 -7.782433E-001 -5.438419E+001
5200.0000     -8.138755E-001 -1.436086E+001 -2.276756E+001 -1.398147E+002 -2.276634E+001 -1.396160E+002 -8.457783E-001 -6.479575E+001
5250.0000     -8.251764E-001 -2.332907E+001 -2.081528E+001 -1.464079E+002 -2.082411E+001 -1.461736E+002 -8.323315E-001 -7.592356E+001
5300.0000     -8.632040E-001 -3.269009E+001 -1.882582E+001 -1.547292E+002 -1.873365E+001 -1.540371E+002 -8.936118E-001 -8.778594E+001
5310.0000     -8.725985E-001 -3.473078E+001 -1.841088E+001 -1.563710E+002 -1.830331E+001 -1.559039E+002 -9.171885E-001 -9.034122E+001
5320.0000     -8.894497E-001 -3.678194E+001 -1.797764E+001 -1.580060E+002 -1.787482E+001 -1.578431E+002 -9.389347E-001 -9.302675E+001
5330.0000     -9.019074E-001 -3.887356E+001 -1.753502E+001 -1.597826E+002 -1.745113E+001 -1.597827E+002 -9.678257E-001 -9.576952E+001
5340.0000     -9.151291E-001 -4.097570E+001 -1.708978E+001 -1.616571E+002 -1.703360E+001 -1.615404E+002 -9.923342E-001 -9.856552E+001
5350.0000     -9.340367E-001 -4.310000E+001 -1.664039E+001 -1.633787E+002 -1.660842E+001 -1.634174E+002 -1.005004E+000 -1.014532E+002
5360.0000     -9.480754E-001 -4.526601E+001 -1.619639E+001 -1.652816E+002 -1.616487E+001 -1.652754E+002 -1.016115E+000 -1.043733E+002
5370.0000     -9.566183E-001 -4.746700E+001 -1.575402E+001 -1.672234E+002 -1.571979E+001 -1.671392E+002 -1.027640E+000 -1.073405E+002
5380.0000     -9.757468E-001 -4.974343E+001 -1.529694E+001 -1.692328E+002 -1.526482E+001 -1.690534E+002 -1.041431E+000 -1.103240E+002
5390.0000     -9.889153E-001 -5.195796E+001 -1.483504E+001 -1.711428E+002 -1.480109E+001 -1.710765E+002 -1.064155E+000 -1.133700E+002
5400.0000     -9.985853E-001 -5.435961E+001 -1.437853E+001 -1.733053E+002 -1.433384E+001 -1.731298E+002 -1.088852E+000 -1.165214E+002
5410.0000     -1.032879E+000 -5.669264E+001 -1.391269E+001 -1.755311E+002 -1.383395E+001 -1.752531E+002 -1.120622E+000 -1.196837E+002
5420.0000     -1.058289E+000 -5.906373E+001 -1.345913E+001 -1.778352E+002 -1.332636E+001 -1.775795E+002 -1.158978E+000 -1.229833E+002
5430.0000     -1.091181E+000 -6.153218E+001 -1.299724E+001  1.797158E+002 -1.282864E+001 -1.798325E+002 -1.204553E+000 -1.263595E+002
5440.0000     -1.139633E+000 -6.404069E+001 -1.254937E+001  1.774124E+002 -1.236853E+001  1.776454E+002 -1.255955E+000 -1.298484E+002
5450.0000     -1.180372E+000 -6.658616E+001 -1.206830E+001  1.749668E+002 -1.191276E+001  1.750752E+002 -1.312055E+000 -1.334230E+002
5460.0000     -1.244182E+000 -6.928488E+001 -1.157650E+001  1.723847E+002 -1.143419E+001  1.722560E+002 -1.389325E+000 -1.371609E+002
5470.0000     -1.297779E+000 -7.202030E+001 -1.108690E+001  1.696647E+002 -1.098455E+001  1.695188E+002 -1.467621E+000 -1.410372E+002
5480.0000     -1.349267E+000 -7.482507E+001 -1.059441E+001  1.668755E+002 -1.049953E+001  1.667835E+002 -1.548709E+000 -1.450414E+002
5490.0000     -1.423512E+000 -7.771987E+001 -1.011447E+001  1.639854E+002 -1.004895E+001  1.638243E+002 -1.631463E+000 -1.491989E+002
5500.0000     -1.479124E+000 -8.071650E+001 -9.624784E+000  1.610235E+002 -9.561034E+000  1.609191E+002 -1.711281E+000 -1.534865E+002
5510.0000     -1.574075E+000 -8.367371E+001 -9.154786E+000  1.579071E+002 -9.107729E+000  1.577687E+002 -1.802054E+000 -1.577948E+002
5520.0000     -1.640456E+000 -8.675441E+001 -8.669340E+000  1.547448E+002 -8.609542E+000  1.546263E+002 -1.905129E+000 -1.622099E+002
5530.0000     -1.758849E+000 -8.988241E+001 -8.208713E+000  1.514100E+002 -8.140108E+000  1.512385E+002 -2.038064E+000 -1.667201E+002
5540.0000     -1.863981E+000 -9.318682E+001 -7.749250E+000  1.479718E+002 -7.651467E+000  1.478308E+002 -2.188425E+000 -1.714921E+002
5550.0000     -1.997814E+000 -9.654369E+001 -7.304543E+000  1.444526E+002 -7.199883E+000  1.442087E+002 -2.346468E+000 -1.763810E+002
5560.0000     -2.146205E+000 -9.993395E+001 -6.863039E+000  1.407946E+002 -6.747129E+000  1.405026E+002 -2.523544E+000  1.786015E+002
5570.0000     -2.308275E+000 -1.033522E+002 -6.424690E+000  1.370768E+002 -6.313188E+000  1.368183E+002 -2.735467E+000  1.734803E+002
5580.0000     -2.508380E+000 -1.068198E+002 -5.988559E+000  1.332930E+002 -5.887424E+000  1.328554E+002 -2.957101E+000  1.681820E+002
5590.0000     -2.736001E+000 -1.103499E+002 -5.565403E+000  1.293936E+002 -5.467858E+000  1.288449E+002 -3.208350E+000  1.627400E+002
5600.0000     -2.969038E+000 -1.140830E+002 -5.146704E+000  1.253855E+002 -5.063247E+000  1.247272E+002 -3.486003E+000  1.571315E+002
5610.0000     -3.232205E+000 -1.178697E+002 -4.762281E+000  1.211398E+002 -4.678445E+000  1.205424E+002 -3.790148E+000  1.513455E+002
5620.0000     -3.504459E+000 -1.216800E+002 -4.379098E+000  1.167972E+002 -4.316924E+000  1.162856E+002 -4.120711E+000  1.454467E+002
5630.0000     -3.811768E+000 -1.253680E+002 -4.025421E+000  1.123717E+002 -3.980012E+000  1.118890E+002 -4.484911E+000  1.394529E+002
5640.0000     -4.160481E+000 -1.291811E+002 -3.684555E+000  1.078506E+002 -3.650694E+000  1.073280E+002 -4.885068E+000  1.334214E+002
5650.0000     -4.534689E+000 -1.329225E+002 -3.372271E+000  1.033901E+002 -3.332814E+000  1.028378E+002 -5.331087E+000  1.273075E+002
5660.0000     -4.956091E+000 -1.368310E+002 -3.096473E+000  9.882189E+001 -3.045715E+000  9.828164E+001 -5.810624E+000  1.210217E+002
