!Mini-Circuits Laboratory
!S-Parameters
!Model: AVA-183A+
!Run / Lot / Date Code: YH0198_QM1152003 / BP080P001 / 1152
!Fixture: TB-547-2+/DC1136
!Network Analyzer: PNA-X N5242A - 423 4 ports;  Serial number: 71404
!Date: 1/25/2012 at 1:30:25 PM
!S/N: Unit# 1
!Tested with: Port Extension
!Connection: Port1=Pin2; Port2=Pin5; Pins 7 & 8 used for feeding DC; Pins 1,3,4,&6 not used. 
!Temperature: 25°C. 
!Vs=5V, ID=132.12mA. 
# Hz  S  dB  R  50
!Frequency    S11 dB        S11 Deg       S21 dB        S21 Deg       S12 dB        S12 Deg       S22 dB        S22 Deg       
10000000      -0.0104102    -0.3651019    -48.2761192   -92.5301971   -69.9230576   -142.7561951  -0.0594681    -0.3367983    
20000000      -0.0894314    -0.5347076    -67.1209335   40.5771103    -91.8734589   -174.3455963  -0.0637630    -0.8476554    
30000000      -0.0705516    -1.0416350    -67.4742966   -142.1593018  -90.6033401   -121.0808029  -0.0640393    -1.1694480    
40000000      -0.0630950    -1.4678510    -71.3648224   118.2910004   -83.3918076   11.2553301    -0.0557626    -1.4715630    
50000000      -0.1712938    -2.5688059    -61.8773689   174.6309052   -67.3269119   -8.0650806    -0.0370228    -1.9682120    
100000000     -0.1281410    -3.5348380    -58.1001396   -172.5697937  -82.3105011   84.2333832    -0.0365824    -4.1821532    
150000000     -0.1311083    -5.1321449    -54.6303291   -172.5821991  -81.1481934   98.1583633    -0.0384825    -6.3731050    
200000000     -0.1462332    -6.7308688    -46.6637611   -178.2010040  -82.5864334   84.8558121    -0.0401595    -8.4190712    
250000000     -0.1587279    -8.2407541    -42.9712105   -174.3392029  -82.9716568   54.5840797    -0.0472508    -10.6363096   
300000000     -0.1765439    -9.6109619    -39.5862389   -170.6069031  -76.9812088   76.0019379    -0.0529016    -12.7160196   
350000000     -0.1820554    -11.1950598   -36.5156784   -169.5001984  -75.5942764   80.6854630    -0.0666799    -14.9482098   
400000000     -0.1740049    -12.7440004   -33.9644318   -169.6042938  -75.7917404   68.9604568    -0.0790662    -17.1178303   
450000000     -0.1789352    -14.3972397   -31.3048592   -168.3067932  -75.5990295   75.8756866    -0.1003098    -19.4515991   
500000000     -0.1827978    -15.9512701   -28.8936996   -168.7590942  -74.7068863   72.3948669    -0.1188765    -21.6768398   
550000000     -0.1940701    -17.5444107   -26.6352501   -169.4066010  -74.7812576   72.8090820    -0.1425247    -23.9608307   
600000000     -0.1988183    -19.1109505   -24.5979309   -170.3314972  -73.9631729   74.7442780    -0.1750745    -26.2376804   
650000000     -0.2052655    -20.6753902   -22.5978909   -171.6354980  -73.4498520   76.6464767    -0.2080397    -28.5896893   
700000000     -0.2155125    -22.2304897   -20.6316795   -173.2111053  -72.2606735   69.8993683    -0.2561691    -30.9799309   
750000000     -0.2186809    -23.8416195   -18.6475601   -176.8504944  -73.7210770   76.0819397    -0.3184575    -33.4149284   
800000000     -0.2272718    -25.4447403   -17.2954197   176.9813995   -73.3004990   83.6671982    -0.3877120    -35.7144012   
850000000     -0.2379761    -27.0707092   -16.2619400   173.1549988   -70.1411438   80.1846237    -0.4299211    -37.9535294   
900000000     -0.2407394    -28.7591496   -15.3542500   173.6468048   -68.7941589   67.3190002    -0.4513653    -40.4198418   
950000000     -0.2524374    -30.3473492   -13.6899204   174.3453979   -70.1349564   62.1088791    -0.5115350    -43.0798988   
1000000000    -0.2705038    -31.9629097   -12.1570101   171.9461060   -70.9835663   57.4786987    -0.5920435    -45.6276588   
1050000000    -0.2810670    -33.5441093   -10.7814302   168.8215027   -71.7606430   59.9779701    -0.6861838    -48.1576881   
1100000000    -0.2892323    -35.1464691   -9.3930159    165.7821045   -72.0416412   61.9189796    -0.7936608    -50.7693787   
1150000000    -0.3022465    -36.8424911   -8.0817280    161.6770020   -72.7489777   73.1780167    -0.9186329    -53.4163094   
1200000000    -0.3169419    -38.4475288   -6.8626490    157.6790924   -73.0261230   75.1596909    -1.0613919    -56.0889702   
1250000000    -0.3346330    -40.2228088   -5.6760621    153.3598938   -71.7474670   85.5486679    -1.2250750    -58.8630600   
1300000000    -0.3500022    -41.8913307   -4.5262871    148.7881012   -71.0995865   92.5264206    -1.3967299    -61.5654106   
1350000000    -0.3674144    -43.6306915   -3.4340010    143.7135925   -69.7423935   98.3335724    -1.5909780    -64.2846603   
1400000000    -0.3977454    -45.2909508   -2.4121239    138.6723938   -68.3224564   99.3428726    -1.8050350    -66.9000473   
1450000000    -0.4124594    -47.0169411   -1.4050910    133.3661957   -66.9394913   101.1171036   -2.0356851    -69.4647675   
1500000000    -0.4281160    -48.6656914   -0.4398165    127.5297012   -65.2129669   103.2668991   -2.2804821    -71.9452286   
1550000000    -0.4532620    -50.3580017   0.4437416     121.6268005   -63.3947792   98.4154434    -2.5481219    -74.3982010   
1600000000    -0.4822322    -52.1810989   1.3036200     115.3674011   -61.9031181   94.2236176    -2.8327579    -76.6990128   
1650000000    -0.5088788    -53.9518509   2.1140389     108.7285004   -60.4733315   90.2115097    -3.1216180    -79.0180817   
1700000000    -0.5435895    -55.7493515   2.8405361     101.7910004   -59.0501785   83.3543472    -3.4224460    -81.2844315   
1750000000    -0.5807692    -57.4865799   3.5135601     94.5845795    -57.7469292   76.5829391    -3.7200410    -83.6309204   
1800000000    -0.6159880    -59.2540398   4.1357679     87.0576172    -56.3603783   69.1077728    -4.0323339    -86.0666199   
1850000000    -0.6597086    -60.9646797   4.6892209     79.1630783    -54.8617706   58.3101196    -4.3574200    -88.7857895   
1900000000    -0.7019433    -62.6878319   5.1698461     70.9666138    -53.8477592   50.9355507    -4.7395620    -91.8924332   
1950000000    -0.7426018    -64.5045624   5.5764461     62.2622490    -52.4205017   38.0310097    -5.1908989    -95.4729691   
2000000000    -0.8014132    -66.2558365   5.8866391     53.0105400    -51.1002197   27.0914497    -5.8239770    -99.7233963   
2050000000    -0.8489384    -68.0056076   6.0783968     43.0098190    -49.6518593   13.6425200    -6.7588239    -104.2323990  
2100000000    -0.9312325    -69.6657333   6.0418720     32.5205994    -48.8170395   1.4865299     -8.1428852    -108.4007034  
2150000000    -1.0014200    -71.3346481   5.8076549     21.7989101    -47.3286285   -17.3358803   -10.2431698   -111.7120972  
2200000000    -1.0808420    -72.8326569   5.3140621     10.3634701    -46.8493996   -32.0467911   -13.8915997   -107.5425034  
2250000000    -1.1498830    -74.2565384   4.3632178     0.0702108     -46.2395897   -47.8370895   -17.4751492   -80.0214767   
2300000000    -1.2206219    -75.7236176   3.2079060     -9.5354443    -45.8201790   -64.3594284   -15.5148602   -34.8603401   
2350000000    -1.2774550    -77.0609131   1.6375639     -17.1664104   -45.8621712   -80.1053925   -10.9209499   -24.9999104   
2400000000    -1.3203020    -78.6315613   -0.0969779    -21.5046196   -45.8785019   -93.8662262   -8.1408873    -27.2977009   
2450000000    -1.3516130    -80.0522079   -1.8505400    -22.7353191   -46.1908798   -106.4066010  -6.1993961    -32.7159805   
2500000000    -1.3907470    -81.6876831   -3.4609671    -20.7398891   -46.5849304   -117.0718002  -4.8870029    -39.2733994   
2550000000    -1.4366990    -83.2766037   -4.6880131    -16.4918308   -46.7215805   -128.1257019  -4.0018229    -45.3760300   
2600000000    -1.4756960    -84.9203262   -5.5301952    -11.6341896   -47.1957703   -135.7763977  -3.3451729    -51.2566414   
2650000000    -1.5260630    -86.4002838   -6.0260792    -7.1270080    -47.7471619   -142.9002991  -2.8843939    -56.8239098   
2700000000    -1.5638390    -87.9654388   -6.3146982    -3.7369001    -47.6712799   -149.0202942  -2.5257781    -61.8713303   
2750000000    -1.6147920    -89.6257782   -6.5895591    -1.5083840    -48.1634407   -154.6759033  -2.2627020    -66.7571182   
2800000000    -1.6818039    -91.2117004   -6.8673010    0.3480704     -48.3323593   -162.1000061  -2.0592289    -71.1600571   
2850000000    -1.7390560    -92.9767838   -7.1914678    1.5113339     -48.6526909   -166.2613983  -1.9059830    -75.6041183   
2900000000    -1.8051180    -94.6312866   -7.6263709    2.5368330     -48.6864090   -169.2444000  -1.7978140    -79.6362305   
2950000000    -1.8651050    -96.3853073   -8.1560249    3.7634070     -49.1225586   -174.5513000  -1.7159470    -83.5971527   
3000000000    -1.9415240    -98.0446167   -8.7789974    5.6732521     -49.1523590   -175.7279053  -1.6728190    -87.4362869   
3050000000    -2.0201621    -99.6624985   -9.5110397    8.2777634     -49.3587494   179.4714050   -1.6411600    -91.1811371   
3100000000    -2.1111419    -101.3899002  -10.3268003   12.2246103    -49.3927689   177.1665039   -1.6430579    -94.9243927   
3150000000    -2.2035420    -103.0652008  -11.1813698   17.6693707    -49.8273087   175.4855042   -1.6501300    -98.4756775   
3200000000    -2.2928281    -104.9413986  -12.0340300   25.1834793    -49.6561813   173.6385956   -1.6819270    -102.0805969  
3250000000    -2.3857291    -106.7090988  -12.7779999   35.2902489    -50.0253296   172.4947968   -1.7214760    -105.4917984  
3300000000    -2.4955850    -108.7656021  -13.2924299   48.2321014    -50.0120506   172.7433014   -1.7658840    -108.9586029  
3350000000    -2.6200011    -110.7142029  -13.2630701   63.6286583    -50.2767296   173.1204071   -1.8325770    -112.1585999  
3400000000    -2.7461450    -112.8594971  -12.6092396   79.8815231    -50.3668213   176.6284027   -1.9035950    -115.4328003  
3450000000    -2.9064391    -114.9105988  -11.1691198   95.5717468    -49.8530884   170.4902954   -1.9922460    -118.5407028  
3500000000    -3.0755970    -117.0653992  -9.0775557    108.9551010   -49.9703293   175.3825989   -2.0841150    -121.5391006  
3550000000    -3.2856710    -119.3349991  -6.4673400    117.9713974   -49.6664200   173.4485016   -2.1930029    -124.5902023  
3600000000    -3.5442810    -121.6697006  -3.7083349    122.5756989   -49.5257607   174.6481934   -2.2920189    -127.5678024  
3650000000    -3.8523221    -124.0074005  -0.9021523    122.7727966   -48.8913307   175.5151062   -2.4083650    -130.6060944  
3700000000    -4.2394090    -125.9941025  1.6881590     118.8804016   -48.4023399   175.4542999   -2.5069640    -133.5792999  
3750000000    -4.6498690    -127.2398987  3.8856361     111.5487976   -47.7331810   173.8159943   -2.6168990    -136.6766968  
3800000000    -5.0081911    -127.7884979  5.5886250     102.4236984   -47.4600487   173.1058960   -2.7326400    -139.7341003  
3850000000    -5.2769151    -127.7902985  6.8280430     92.9620972    -46.7876892   170.4642944   -2.8654361    -142.9398956  
3900000000    -5.4382739    -127.8237000  7.6933270     83.8137665    -46.8958397   167.2082062   -3.0187991    -146.1114044  
3950000000    -5.5650439    -128.2686005  8.2583637     75.6526871    -46.6901093   165.4414978   -3.1848390    -149.2875977  
4000000000    -5.6609182    -129.1819000  8.6975479     68.6457672    -46.5441093   165.0554047   -3.3838811    -152.4678955  
4025000000    -5.7292519    -129.7454071  8.8778095     65.3539734    -46.5068283   163.1916962   -3.4879241    -154.1797943  
4050000000    -5.7756820    -130.5688019  9.0882425     62.4950905    -46.5268097   163.6804962   -3.5684199    -155.6535950  
4075000000    -5.8487711    -131.1446075  9.2043343     59.7859001    -46.3223190   163.2216034   -3.6893780    -157.3114929  
4100000000    -5.9083581    -131.9752960  9.3735619     56.9473381    -46.1245995   162.9104004   -3.7758720    -158.8784027  
4125000000    -5.9881821    -132.7826996  9.5220165     54.5109711    -45.9259911   161.7458038   -3.8873711    -160.6047974  
4150000000    -6.0577559    -133.6508942  9.6131992     52.0062218    -46.1297798   162.2886047   -3.9696820    -162.0802002  
4175000000    -6.1343112    -134.4902954  9.7647161     49.5794716    -45.8116989   163.5509033   -4.0980701    -163.7606964  
4200000000    -6.2168050    -135.4017029  9.8969955     47.6733017    -45.7252007   161.1885986   -4.1845560    -165.3184967  
4225000000    -6.3133049    -136.2433929  10.0073099    45.3052711    -45.4957695   160.8515015   -4.2991848    -166.8851929  
4250000000    -6.3857632    -137.0603027  10.1426096    43.0655899    -45.4859200   160.2003021   -4.3934479    -168.3842926  
4275000000    -6.4956312    -137.9367065  10.2603102    41.2573814    -45.3711090   159.5950928   -4.5261569    -169.9172974  
4300000000    -6.6037102    -138.7160950  10.3690500    39.1001396    -45.3488693   159.9270020   -4.6100578    -171.5198975  
4325000000    -6.7201290    -139.6885071  10.5021296    37.1938095    -45.1509590   160.6717987   -4.7429929    -172.9918060  
4350000000    -6.8527689    -140.3444061  10.5919800    35.4508095    -44.7932587   160.2254028   -4.8374949    -174.4945068  
4375000000    -6.9746380    -141.2017975  10.7090998    33.4327698    -44.6551018   158.5807953   -4.9714069    -176.0966949  
4400000000    -7.1151280    -142.0294037  10.8531103    31.7189407    -44.3343697   159.6045074   -5.0736828    -177.7216034  
4425000000    -7.2502398    -142.9264984  10.9314804    29.9780006    -44.4929314   158.3500061   -5.2067580    -179.1927948  
4450000000    -7.4025869    -143.8108978  11.0553703    28.0406609    -44.2471504   158.0471954   -5.3088951    179.2182007   
4475000000    -7.5555072    -144.8155060  11.1866703    26.2339802    -44.1892204   158.1763000   -5.4431601    177.4750061   
4500000000    -7.6999998    -145.8271027  11.2604198    24.5603809    -43.7940292   157.7949982   -5.5320530    175.8657990   
4525000000    -7.8548250    -146.7902985  11.3896503    22.6517391    -43.6616592   156.5644989   -5.6721640    174.3186951   
4550000000    -8.0373058    -147.7286072  11.5033703    21.0244503    -43.4718819   155.8847961   -5.7722650    172.6179047   
4575000000    -8.1855431    -148.8849945  11.5755596    19.2979298    -43.3984299   154.4252930   -5.8848200    171.0482941   
4600000000    -8.3660097    -149.8386993  11.6690102    17.4679508    -43.2558899   156.6242065   -5.9834051    169.3760071   
4625000000    -8.5357561    -150.8526001  11.7727003    15.9346800    -43.1774101   153.6555939   -6.0983758    167.9042969   
4650000000    -8.7213240    -151.9429016  11.8497105    14.2051001    -42.9885216   153.5093994   -6.1915860    166.2265015   
4675000000    -8.8739967    -152.7910004  11.9570904    12.5024004    -42.7341499   151.2431946   -6.2983341    164.8551025   
4700000000    -9.0864248    -153.8421936  12.0521698    11.1476698    -42.5999489   152.1230927   -6.4090352    163.2337952   
4725000000    -9.2733669    -154.7360992  12.1142197    9.3517828     -42.5123482   149.7348022   -6.5306349    161.7843018   
4750000000    -9.4749813    -155.8842010  12.2208405    7.7582970     -42.3913116   148.9799042   -6.6243901    160.1342926   
4775000000    -9.6831379    -156.9064026  12.2876396    6.2399278     -42.2734489   148.4680023   -6.7455668    158.8394928   
4800000000    -9.8993597    -158.0572968  12.3717804    4.4669700     -42.2214584   148.2588043   -6.8540401    157.2409058   
4825000000    -10.1678801   -158.9136963  12.4534101    3.0690949     -41.7523384   148.5572052   -7.0148740    155.8699036   
4850000000    -10.3539305   -160.3737030  12.5240698    1.5852040     -41.8056107   146.1248016   -7.0929251    154.2052002   
4875000000    -10.6141996   -161.4353943  12.6039896    -0.0836120    -41.6031609   146.0581055   -7.2341142    152.8368988   
4900000000    -10.8326397   -162.5256042  12.7002096    -1.7015870    -41.5347290   144.5890961   -7.3396640    150.9931946   
4925000000    -11.0695801   -163.9091949  12.7406101    -3.2639110    -41.3651199   144.0117035   -7.4606481    149.4270020   
4950000000    -11.2874002   -165.6009064  12.8219604    -5.0191741    -41.4478912   143.0202942   -7.5445108    147.6338043   
4975000000    -11.5900097   -166.8289948  12.8864298    -6.3310781    -41.1906395   144.3542938   -7.7009621    146.1555023   
5000000000    -11.7867298   -168.0220032  12.9288502    -7.9547000    -41.1431084   141.6763000   -7.7662611    144.2899017   
5025000000    -12.0167599   -169.5352020  12.9962196    -9.5427656    -41.0139008   141.0110931   -7.8594708    142.8011017   
5050000000    -12.2491999   -170.6560059  13.0672302    -10.9691601   -40.8432083   140.0200043   -7.9432831    141.2568054   
5075000000    -12.4978104   -172.0202026  13.1062603    -12.5081396   -40.8237190   139.0399017   -8.0472069    139.7454987   
5100000000    -12.7775698   -173.2559967  13.1718998    -13.9930296   -40.6517487   138.2406006   -8.1208858    138.1105957   
5125000000    -13.0236702   -174.4853973  13.2245197    -15.2756205   -40.3538895   138.2245026   -8.2211800    136.9463959   
5150000000    -13.2596197   -175.9356995  13.2670898    -16.9201107   -40.4028282   135.7424011   -8.2829466    135.4192963   
5175000000    -13.6146498   -177.6595001  13.3188601    -18.3289909   -40.3998184   135.6750946   -8.3846979    133.9653931   
5200000000    -13.8664198   -179.0281982  13.3702297    -19.6270905   -40.1717491   134.6898956   -8.4652052    132.5664978   
5225000000    -14.1315603   179.6766968   13.4116497    -21.1785107   -40.1213112   134.3175049   -8.5558739    131.4136047   
5250000000    -14.4157305   178.1632996   13.4827404    -22.5621109   -39.9741287   132.2131958   -8.6544180    129.9945984   
5275000000    -14.7488899   176.0816040   13.4999399    -23.8546696   -39.9927711   131.5746002   -8.7660341    128.4860992   
5300000000    -15.0823402   174.4051971   13.5454302    -25.4332600   -39.9116096   131.3746948   -8.8588562    126.9611969   
5325000000    -15.3670101   172.5792999   13.6072702    -26.7532902   -39.8301010   130.5070953   -8.9464169    125.7478027   
5350000000    -15.6611004   170.6486053   13.6269398    -28.1093998   -39.6521187   129.3950043   -9.0723705    124.2395020   
5375000000    -15.9212503   168.5316925   13.6760998    -29.5872192   -39.6262512   128.8103943   -9.1735544    122.6776962   
5400000000    -16.1994095   166.9400024   13.7184696    -30.9423904   -39.5000000   127.4754028   -9.2471466    121.0883026   
5425000000    -16.4879303   164.4669952   13.7377996    -32.2396812   -39.5337906   127.0307007   -9.3291454    119.6529999   
5450000000    -16.7625008   162.5744019   13.7767296    -33.7787704   -39.4265518   125.7080002   -9.3947582    118.0343018   
5475000000    -17.1088295   160.7144928   13.8073101    -34.8981094   -39.3880806   126.1197968   -9.4855661    116.5316010   
5500000000    -17.3358097   159.6186981   13.8369799    -36.3563614   -39.1818504   124.2757034   -9.5299702    115.1882019   
5525000000    -17.6490498   157.3786011   13.8718204    -37.7208519   -39.1314392   123.3694000   -9.5742006    113.8988037   
5550000000    -17.9094601   154.9389954   13.8963499    -38.9295807   -39.0589790   122.7152023   -9.6333838    112.6314011   
5575000000    -18.1973801   153.2362976   13.9264097    -40.2924385   -39.0307503   121.8125992   -9.6843424    111.5126038   
5600000000    -18.6562099   151.1750031   13.9640598    -41.5572815   -38.9281883   121.3510971   -9.7582417    110.2974014   
5625000000    -18.9438496   147.9645996   13.9768105    -42.7890091   -38.9252090   120.0015030   -9.7939796    109.1314011   
5650000000    -19.1963596   145.7471924   13.9902296    -44.1465416   -38.8348007   119.2069016   -9.8888931    108.0290985   
5675000000    -19.5896492   143.1309052   14.0451498    -45.3641205   -38.7844200   118.4434967   -9.9483013    106.9522018   
5700000000    -19.9672604   140.5677032   14.0501099    -46.5799904   -38.7268295   118.1724014   -10.0571899   105.7027969   
