! Mini-Circuits
! S2P DATA File Format
! Type: High Pass LTCC Surface Mount Filter
! Model: HFCN-7150+   
! Note: All S Parameters are in dB deg format
! TEST CONDITIONS: INPUT POWER = 0dBm @Temperature = +25degC
! 401 Frequency points
!
# MHz S DB R 50
!    FREQ       dB(S11)   PHS(S11)  dB(S21)   PHS(S21)  dB(S12)   PHS(S12)  dB(S22)   PHS(S22) 
   50.000000    -0.009    -3.030   -64.275    82.058   -60.821    88.795    -0.032    -3.802 
  100.000000    -0.018    -6.218   -55.755    84.206   -55.387    83.283    -0.036    -7.631 
  130.000000    -0.030    -8.166   -53.015    79.017   -53.054    79.981    -0.033   -10.003 
  170.000000    -0.027   -10.605   -50.751    77.170   -50.626    78.474    -0.028   -13.036 
  210.000000    -0.010   -13.303   -48.833    74.495   -48.825    75.522    -0.023   -16.248 
  250.000000    -0.035   -15.626   -47.361    72.311   -47.355    72.337    -0.035   -19.022 
  290.000000    -0.008   -18.271   -46.025    69.517   -46.037    69.543    -0.023   -22.262 
  330.000000    -0.035   -20.686   -44.934    67.201   -44.899    66.846    -0.049   -25.274 
  370.000000    -0.019   -23.243   -43.898    63.862   -43.954    64.182    -0.017   -28.354 
  410.000000    -0.057   -25.817   -43.061    60.859   -43.061    61.052    -0.052   -31.567 
  450.000000    -0.014   -28.254   -42.221    58.389   -42.242    58.386    -0.036   -34.480 
  500.000000     0.001   -31.692   -41.297    54.641   -41.347    54.850    -0.024   -38.484 
  530.000000    -0.030   -33.315   -40.855    52.934   -40.896    52.854    -0.057   -40.647 
  570.000000     0.000   -36.178   -40.199    49.864   -40.198    49.766    -0.020   -43.840 
  610.000000    -0.064   -38.405   -39.681    47.196   -39.673    47.097    -0.075   -46.899 
  650.000000    -0.021   -41.001   -39.075    44.173   -39.097    44.279    -0.020   -49.908 
  690.000000    -0.081   -43.704   -38.627    41.182   -38.605    41.216    -0.062   -53.330 
  730.000000    -0.028   -45.989   -38.077    38.523   -38.142    38.742    -0.049   -56.052 
  770.000000    -0.051   -49.000   -37.648    35.308   -37.652    35.474    -0.023   -59.541 
  810.000000    -0.061   -51.098   -37.271    32.935   -37.307    32.882    -0.097   -62.373 
  850.000000    -0.006   -54.097   -36.780    29.781   -36.832    30.112    -0.041   -65.508 
  890.000000    -0.092   -56.327   -36.502    27.281   -36.516    27.098    -0.102   -68.821 
  930.000000    -0.021   -58.892   -36.049    24.417   -36.101    24.552    -0.060   -71.736 
  970.000000    -0.101   -61.552   -35.799    21.350   -35.757    21.198    -0.064   -75.297 
 1000.000000    -0.012   -63.404   -35.448    19.333   -35.509    19.505    -0.068   -77.136 
 1050.000000    -0.081   -66.866   -35.113    15.499   -35.068    15.655    -0.026   -81.526 
 1090.000000    -0.081   -68.986   -34.817    13.102   -34.861    12.788    -0.119   -84.473 
 1130.000000    -0.022   -72.038   -34.455     9.650   -34.495    10.178    -0.060   -87.436 
 1170.000000    -0.102   -74.289   -34.288     6.963   -34.279     6.877    -0.119   -90.922 
 1210.000000    -0.019   -77.019   -33.918     4.145   -33.990     4.431    -0.086   -93.645 
 1250.000000    -0.121   -79.592   -33.768     1.101   -33.720     0.841    -0.082   -97.411 
 1290.000000    -0.051   -81.807   -33.439    -1.351   -33.531    -1.547    -0.120  -100.069 
 1330.000000    -0.096   -84.900   -33.254    -4.809   -33.209    -4.548    -0.053  -103.501 
 1370.000000    -0.074   -86.978   -33.004    -7.164   -33.079    -7.481    -0.150  -106.629 
 1410.000000    -0.054   -90.196   -32.767   -10.694   -32.777   -10.086    -0.073  -109.519 
 1450.000000    -0.108   -92.361   -32.620   -13.220   -32.629   -13.597    -0.137  -113.129 
 1490.000000    -0.027   -95.279   -32.326   -16.414   -32.430   -15.988    -0.123  -115.822 
 1530.000000    -0.123   -97.808   -32.255   -19.284   -32.204   -19.501    -0.085  -119.627 
 1570.000000    -0.057  -100.201   -31.996   -21.874   -32.088   -21.897    -0.156  -122.341 
 1610.000000    -0.122  -103.190   -31.886   -25.283   -31.819   -25.083    -0.078  -125.703 
 1650.000000    -0.085  -105.334   -31.685   -27.618   -31.755   -27.836    -0.178  -128.766 
 1690.000000    -0.071  -108.565   -31.504   -31.249   -31.519   -30.609    -0.116  -131.725 
 1730.000000    -0.116  -110.804   -31.388   -33.660   -31.409   -34.139    -0.169  -135.405 
 1770.000000    -0.031  -113.723   -31.142   -36.967   -31.237   -36.589    -0.155  -138.204 
 1810.000000    -0.139  -116.239   -31.095   -39.902   -31.053   -40.197    -0.107  -141.933 
 1850.000000    -0.054  -118.837   -30.879   -42.782   -30.996   -42.642    -0.172  -144.713 
 1890.000000    -0.138  -121.709   -30.840   -45.977   -30.776   -45.906    -0.099  -148.191 
 1930.000000    -0.100  -123.909   -30.644   -48.403   -30.750   -48.855    -0.204  -151.428 
 1970.000000    -0.104  -127.107   -30.524   -52.006   -30.532   -51.484    -0.141  -154.284 
 2000.000000    -0.103  -128.593   -30.414   -53.612   -30.512   -54.142    -0.210  -157.072 
 2050.000000    -0.073  -132.487   -30.256   -58.384   -30.328   -57.898    -0.175  -160.846 
 2090.000000    -0.136  -134.845   -30.291   -60.961   -30.235   -61.441    -0.131  -164.642 
 2130.000000    -0.070  -137.669   -30.081   -64.017   -30.207   -63.897    -0.195  -167.478 
 2170.000000    -0.157  -140.443   -30.072   -67.187   -30.020   -67.160    -0.126  -170.963 
 2210.000000    -0.104  -142.724   -29.939   -69.800   -30.050   -70.262    -0.223  -174.300 
 2250.000000    -0.130  -145.846   -29.896   -73.237   -29.888   -72.753    -0.168  -177.103 
 2290.000000    -0.133  -148.160   -29.807   -75.929   -29.832   -76.479    -0.194   179.011 
 2330.000000    -0.108  -151.184   -29.714   -79.390   -29.771   -79.146    -0.190   176.157 
 2370.000000    -0.149  -153.656   -29.712   -82.378   -29.686   -82.826    -0.149   172.426 
 2410.000000    -0.095  -156.535   -29.608   -85.430   -29.702   -85.416    -0.217   169.367 
 2450.000000    -0.163  -159.230   -29.635   -88.515   -29.587   -88.478    -0.145   166.003 
 2490.000000    -0.127  -161.683   -29.499   -91.169   -29.600   -91.583    -0.233   162.534 
 2530.000000    -0.153  -164.595   -29.469   -94.671   -29.478   -94.329    -0.192   159.617 
 2570.000000    -0.155  -167.053   -29.453   -97.935   -29.496   -98.419    -0.204   155.812 
 2610.000000    -0.156  -169.910   -29.454  -100.957   -29.482  -100.753    -0.217   152.827 
 2650.000000    -0.172  -172.503   -29.435  -103.906   -29.372  -104.229    -0.160   149.155 
 2690.000000    -0.146  -175.393   -29.346  -107.246   -29.425  -107.261    -0.248   145.976 
 2730.000000    -0.174  -178.020   -29.326  -110.670   -29.291  -110.695    -0.192   142.689 
 2770.000000    -0.146   179.302   -29.394  -114.062   -29.483  -114.268    -0.251   139.115 
 2810.000000    -0.184   176.536   -29.420  -116.965   -29.426  -116.726    -0.237   136.177 
 2850.000000    -0.169   173.980   -29.411  -119.922   -29.415  -120.369    -0.229   132.286 
 2890.000000    -0.179   171.127   -29.410  -123.159   -29.449  -122.996    -0.262   129.311 
 2930.000000    -0.193   168.528   -29.427  -126.409   -29.389  -126.763    -0.204   125.655 
 2970.000000    -0.192   165.719   -29.434  -129.765   -29.484  -130.066    -0.279   122.268 
 3000.000000    -0.203   163.637   -29.467  -132.692   -29.479  -132.721    -0.256   119.873 
 3050.000000    -0.205   160.203   -29.564  -136.843   -29.619  -137.042    -0.292   115.448 
 3090.000000    -0.216   157.438   -29.658  -140.185   -29.688  -139.892    -0.282   112.422 
 3130.000000    -0.221   154.718   -29.763  -143.331   -29.782  -143.491    -0.257   108.622 
 3170.000000    -0.225   152.049   -29.862  -146.312   -29.893  -146.284    -0.299   105.445 
 3210.000000    -0.232   149.215   -29.929  -149.286   -29.918  -149.551    -0.245   101.843 
 3250.000000    -0.237   146.553   -29.959  -152.503   -29.997  -152.652    -0.294    98.387 
 3290.000000    -0.234   143.673   -30.042  -156.302   -30.020  -156.289    -0.261    95.088 
 3330.000000    -0.242   140.876   -30.142  -159.650   -30.173  -159.910    -0.303    91.342 
 3370.000000    -0.234   138.119   -30.275  -163.072   -30.290  -162.868    -0.293    88.286 
 3410.000000    -0.255   135.196   -30.362  -166.623   -30.358  -166.616    -0.282    84.507 
 3450.000000    -0.250   132.601   -30.502  -170.097   -30.528  -170.181    -0.324    81.198 
 3490.000000    -0.264   129.673   -30.632  -174.647   -30.621  -174.706    -0.281    77.556 
 3530.000000    -0.277   127.061   -30.945  -177.689   -30.956  -177.945    -0.324    74.049 
 3570.000000    -0.258   124.128   -31.101   178.758   -31.094   178.694    -0.292    70.717 
 3610.000000    -0.281   121.385   -31.310   175.042   -31.306   174.760    -0.326    67.016 
 3650.000000    -0.272   118.571   -31.473   171.058   -31.498   171.011    -0.328    63.756 
 3690.000000    -0.289   115.656   -31.820   166.501   -31.810   166.527    -0.311    60.089 
 3730.000000    -0.275   113.049   -32.205   163.968   -32.257   163.869    -0.331    56.675 
 3770.000000    -0.283   109.947   -32.336   159.414   -32.326   159.516    -0.303    53.020 
 3810.000000    -0.309   107.387   -32.799   155.593   -32.794   155.388    -0.339    49.456 
 3850.000000    -0.278   104.467   -33.125   152.504   -33.099   152.515    -0.313    46.023 
 3890.000000    -0.328   101.649   -33.401   148.575   -33.372   148.513    -0.331    42.370 
 3930.000000    -0.285    98.915   -33.659   143.941   -33.668   143.897    -0.339    38.955 
 3970.000000    -0.324    95.874   -34.059   139.132   -34.032   139.189    -0.337    35.266 
 4000.000000    -0.293    93.882   -34.371   135.669   -34.390   135.794    -0.345    32.708 
 4050.000000    -0.305    90.026   -35.070   127.853   -35.064   127.973    -0.338    28.128 
 4090.000000    -0.344    87.561   -35.828   124.411   -35.800   124.252    -0.360    24.521 
 4130.000000    -0.299    84.451   -36.171   119.741   -36.171   119.839    -0.343    21.007 
 4170.000000    -0.357    81.673   -36.689   112.883   -36.663   112.822    -0.359    17.288 
 4210.000000    -0.311    78.940   -37.334   107.146   -37.347   107.226    -0.373    13.768 
 4250.000000    -0.358    75.810   -37.546    98.522   -37.518    98.811    -0.374    10.005 
 4290.000000    -0.339    73.346   -39.092    86.320   -39.110    86.139    -0.391     6.493 
 4330.000000    -0.336    69.938   -39.671    81.045   -39.661    81.284    -0.369     2.731 
 4370.000000    -0.366    67.461   -40.364    70.156   -40.331    70.045    -0.393    -0.962 
 4410.000000    -0.339    64.183   -41.034    59.068   -41.028    59.355    -0.389    -4.613 
 4450.000000    -0.412    61.544   -41.202    45.087   -41.168    45.249    -0.409    -8.236 
 4490.000000    -0.333    58.684   -41.271    31.694   -41.310    31.821    -0.423   -11.955 
 4530.000000    -0.423    55.664   -40.763    12.940   -40.718    13.042    -0.427   -15.606 
 4570.000000    -0.369    52.902   -40.622     0.679   -40.650     0.593    -0.425   -19.401 
 4610.000000    -0.410    49.646   -39.737   -15.473   -39.698   -15.025    -0.427   -23.166 
 4650.000000    -0.411    46.970   -39.237   -27.111   -39.197   -27.124    -0.426   -26.835 
 4690.000000    -0.390    43.599   -38.455   -35.552   -38.445   -35.142    -0.440   -30.696 
 4730.000000    -0.450    40.911   -37.316   -42.829   -37.251   -42.700    -0.455   -34.366 
 4770.000000    -0.389    37.722   -36.146   -50.330   -36.181   -49.937    -0.467   -38.091 
 4810.000000    -0.458    34.869   -35.289   -57.694   -35.220   -57.521    -0.480   -41.882 
 4850.000000    -0.422    31.913   -34.305   -63.552   -34.296   -63.372    -0.474   -45.728 
 4890.000000    -0.472    28.673   -33.353   -70.377   -33.304   -70.019    -0.489   -49.456 
 4930.000000    -0.448    26.000   -32.680   -77.035   -32.652   -76.980    -0.483   -53.288 
 4970.000000    -0.444    22.404   -32.068   -82.665   -32.069   -82.110    -0.494   -57.122 
 5000.000000    -0.463    20.514   -31.658   -84.453   -31.643   -84.336    -0.506   -59.933 
 5050.000000    -0.456    16.471   -30.361   -90.401   -30.372   -89.961    -0.528   -64.724 
 5100.000000    -0.488    12.538   -29.655   -98.688   -29.634   -98.348    -0.522   -69.524 
 5130.000000    -0.459    10.401   -29.366  -102.667   -29.386  -102.352    -0.525   -72.339 
 5170.000000    -0.502     7.010   -29.031  -106.213   -29.007  -105.872    -0.539   -76.418 
 5210.000000    -0.503     4.137   -28.412  -109.280   -28.393  -109.089    -0.548   -80.124 
 5250.000000    -0.509     0.546   -27.833  -113.598   -27.819  -113.099    -0.568   -84.164 
 5290.000000    -0.550    -2.391   -27.227  -118.272   -27.193  -117.791    -0.589   -87.883 
 5330.000000    -0.500    -5.835   -26.776  -123.724   -26.800  -123.132    -0.571   -91.852 
 5370.000000    -0.557    -9.033   -26.504  -127.706   -26.474  -127.229    -0.607   -95.899 
 5410.000000    -0.515   -12.283   -26.086  -131.427   -26.094  -130.926    -0.587   -99.791 
 5450.000000    -0.569   -15.705   -25.733  -135.145   -25.714  -134.828    -0.620  -103.983 
 5500.000000    -0.589   -19.708   -25.179  -140.010   -25.152  -139.532    -0.641  -108.843 
 5530.000000    -0.570   -22.370   -24.862  -143.775   -24.844  -143.418    -0.617  -111.981 
 5570.000000    -0.604   -25.526   -24.628  -148.082   -24.607  -147.618    -0.651  -115.841 
 5610.000000    -0.558   -29.209   -24.322  -152.832   -24.329  -152.239    -0.627  -120.084 
 5650.000000    -0.620   -32.563   -24.239  -156.408   -24.221  -155.957    -0.660  -124.189 
 5690.000000    -0.583   -36.007   -23.919  -159.714   -23.951  -159.115    -0.659  -128.207 
 5730.000000    -0.647   -39.637   -23.699  -163.423   -23.672  -163.061    -0.695  -132.588 
 5770.000000    -0.631   -42.899   -23.331  -167.456   -23.361  -166.920    -0.690  -136.498 
 5810.000000    -0.637   -46.854   -23.246  -172.511   -23.238  -172.004    -0.685  -140.965 
 5850.000000    -0.664   -50.196   -23.163  -176.107   -23.167  -175.577    -0.722  -145.097 
 5890.000000    -0.646   -54.254   -23.091   179.307   -23.119   179.982    -0.693  -149.486 
 5930.000000    -0.692   -57.832   -23.082   175.981   -23.066   176.478    -0.731  -153.840 
 5970.000000    -0.662   -61.652   -23.005   172.055   -23.029   172.754    -0.721  -158.029 
 6000.000000    -0.704   -64.546   -22.999   169.261   -23.002   169.782    -0.726  -161.413 
 6050.000000    -0.693   -69.279   -23.084   164.140   -23.115   164.813    -0.749  -166.797 
 6090.000000    -0.719   -73.467   -23.335   159.810   -23.338   160.246    -0.739  -171.519 
 6150.000000    -0.753   -79.628   -23.815   155.014   -23.804   155.415    -0.764  -178.435 
 6170.000000    -0.732   -81.726   -23.956   153.401   -23.969   154.103    -0.751   179.507 
 6210.000000    -0.781   -85.796   -24.430   150.567   -24.454   151.058    -0.789   174.699 
 6250.000000    -0.760   -90.202   -24.976   147.983   -25.010   148.626    -0.776   170.148 
 6290.000000    -0.805   -94.602   -25.784   145.794   -25.772   146.228    -0.795   165.137 
 6330.000000    -0.798   -99.072   -26.896   144.794   -26.943   145.436    -0.806   160.463 
 6370.000000    -0.836  -103.952   -28.385   147.200   -28.374   147.667    -0.807   155.282 
 6410.000000    -0.866  -108.569   -30.127   153.893   -30.165   154.533    -0.844   150.340 
 6450.000000    -0.882  -113.866   -31.971   170.313   -31.973   170.925    -0.834   145.071 
 6490.000000    -0.924  -118.971   -32.023  -161.438   -32.003  -160.913    -0.879   139.543 
 6530.000000    -0.945  -124.485   -29.251  -138.709   -29.300  -138.041    -0.892   134.117 
 6570.000000    -1.024  -130.191   -25.919  -128.668   -25.905  -128.250    -0.947   128.129 
 6610.000000    -1.069  -136.006   -22.853  -125.999   -22.897  -125.267    -1.008   122.437 
 6650.000000    -1.175  -142.418   -20.188  -127.226   -20.192  -126.683    -1.058   116.155 
 6690.000000    -1.273  -148.790   -17.833  -130.470   -17.841  -129.916    -1.174   109.684 
 6730.000000    -1.416  -155.969   -15.719  -135.537   -15.729  -134.867    -1.272   103.055 
 6770.000000    -1.627  -163.097   -13.814  -141.273   -13.811  -140.936    -1.450    95.882 
 6810.000000    -1.824  -171.028   -12.050  -148.322   -12.082  -147.626    -1.667    88.595 
 6850.000000    -2.186  -179.048   -10.502  -155.765   -10.481  -155.395    -1.942    80.899 
 6890.000000    -2.555   172.482    -9.046  -164.007    -9.058  -163.544    -2.345    73.019 
 6930.000000    -3.113   163.603    -7.803  -172.807    -7.775  -172.350    -2.788    64.969 
 6970.000000    -3.736   154.694    -6.629   178.168    -6.643   178.453    -3.394    56.870 
 7000.000000    -4.339   147.679    -5.908   170.913    -5.888   171.277    -3.923    50.818 
 7050.000000    -5.502   136.577    -4.849   159.052    -4.836   159.214    -4.967    41.123 
 7090.000000    -6.581   127.722    -4.161   149.336    -4.174   149.496    -5.955    34.123 
 7150.000000    -8.488   115.568    -3.383   135.450    -3.396   135.651    -7.616    24.616 
 7170.000000    -9.198   111.700    -3.168   131.036    -3.177   131.155    -8.229    21.915 
 7210.000000   -10.806   104.722    -2.824   122.063    -2.834   122.148    -9.518    17.372 
 7250.000000   -12.482    99.195    -2.571   113.689    -2.597   113.731   -10.744    14.427 
 7290.000000   -14.268    94.425    -2.379   105.666    -2.401   105.764   -11.965    12.022 
 7330.000000   -16.128    90.363    -2.204    98.104    -2.230    98.162   -13.174    10.636 
 7370.000000   -18.249    88.692    -2.060    90.835    -2.097    90.832   -14.315    10.551 
 7410.000000   -20.383    90.642    -1.978    83.774    -2.003    83.795   -15.235    11.623 
 7450.000000   -22.211    94.727    -1.901    77.127    -1.947    77.070   -15.965    12.363 
 7500.000000   -24.174   105.204    -1.829    68.968    -1.858    68.922   -16.617    13.664 
 7530.000000   -24.702   110.821    -1.793    64.406    -1.836    64.309   -16.934    14.007 
 7570.000000   -24.737   118.640    -1.764    58.422    -1.802    58.353   -17.162    13.629 
 7610.000000   -24.563   121.465    -1.722    52.661    -1.762    52.637   -17.492    12.083 
 7650.000000   -24.565   122.976    -1.687    47.062    -1.732    46.998   -17.732    10.868 
 7690.000000   -23.993   121.765    -1.660    41.467    -1.698    41.528   -17.946     8.164 
 7730.000000   -24.107   119.264    -1.621    36.276    -1.664    36.185   -18.272     5.460 
 7770.000000   -23.919   116.452    -1.581    30.915    -1.611    30.936   -18.801     2.080 
 7810.000000   -23.624   112.767    -1.561    25.622    -1.596    25.628   -19.026    -0.426 
 7850.000000   -23.361   106.669    -1.554    20.519    -1.584    20.528   -19.274    -5.352 
 7900.000000   -23.179    93.192    -1.546    14.561    -1.581    14.531   -19.762   -13.312 
 7930.000000   -23.471    88.673    -1.508    11.001    -1.552    10.906   -20.301   -17.385 
 7970.000000   -23.805    81.126    -1.467     6.055    -1.500     6.045   -21.170   -21.878 
 8000.000000   -23.689    77.040    -1.445     2.379    -1.488     2.258   -21.408   -25.137 
 8050.000000   -23.082    63.738    -1.469    -3.535    -1.498    -3.586   -22.165   -34.846 
 8090.000000   -23.239    54.553    -1.436    -8.160    -1.477    -8.198   -23.004   -42.356 
 8120.000000   -22.913    47.376    -1.437   -11.621    -1.460   -11.671   -23.569   -48.984 
 8160.000000   -22.639    38.027    -1.430   -16.178    -1.466   -16.181   -24.229   -57.000 
 8190.000000   -22.278    30.975    -1.428   -19.494    -1.456   -19.537   -24.733   -66.579 
 8230.000000   -21.861    20.878    -1.413   -23.873    -1.449   -23.927   -25.579   -79.555 
 8260.000000   -21.644    14.254    -1.404   -27.123    -1.429   -27.156   -26.078   -89.883 
 8300.000000   -21.347     5.676    -1.387   -31.496    -1.415   -31.636   -26.841  -103.722 
 8330.000000   -20.989    -0.722    -1.366   -34.815    -1.399   -34.915   -27.056  -115.041 
