!Agilent Technologies,E8361A,US43140893,A.06.04.32
!Agilent HMC3653LP3BE: A.06.04.32
!Date: Wednesday, November 18, 2012 13:50:33
!Correction: S11(Full 2 Port(1,2)) S21(Full 2 Port(1,2)) S12(Full 2 Port(1,2)) S22(Full 2 Port(1,2)) 
!S2P File: Measurements: S11, S21, S12, S22:
# GHz S  dB   R 50
0.05	-0.001	-9.723	-62.157	131.388	-82.597	-138.009	-0.008	-6.234
0.14975	-0.035	-29.17	-77.039	-38.103	-80.613	67.986	-0.008	-18.492
0.2495	-0.075	-48.645	-83.325	67.528	-80.87	87.055	-0.014	-30.796
0.34925	-0.149	-68.102	-80.034	29.239	-81.362	35.575	-0.023	-43.109
0.449	-0.247	-87.533	-75.836	8.346	-82.68	45.92	-0.036	-55.42
0.54875	-0.366	-106.906	-84.683	-10.883	-84.967	62.348	-0.053	-67.726
0.6485	-0.5	-126.137	-80.394	-13.5	-80.091	-2.264	-0.073	-80.047
0.74825	-0.644	-145.229	-80.008	-6.344	-81.563	22.479	-0.096	-92.356
0.848	-0.796	-164.184	-80.353	-3.827	-88.944	-31.051	-0.121	-104.657
0.94775	-0.948	177.104	-81.656	34.743	-85.295	-7.283	-0.152	-116.941
1.0475	-1.089	158.619	-81.885	60.843	-97.791	-75.396	-0.183	-129.254
1.14725	-1.234	140.452	-76.893	47.464	-78.662	34.023	-0.216	-141.56
1.247	-1.359	122.577	-79.872	47.064	-81.476	50.941	-0.25	-153.915
1.34675	-1.481	105.015	-71.881	37.292	-71.961	44.201	-0.286	-166.233
1.4465	-1.585	87.762	-68.979	26.243	-68.531	26.443	-0.324	-178.6
1.54625	-1.688	70.746	-65.565	6.921	-65.87	11.781	-0.361	169.017
1.646	-1.778	54.108	-64.415	-4.552	-64.438	-2.844	-0.401	156.657
1.74575	-1.859	37.709	-62.386	-21.769	-62.669	-18.355	-0.438	144.235
1.8455	-1.937	21.575	-61.714	-41.687	-61.523	-37.948	-0.476	131.789
1.94525	-2.016	5.499	-61.46	-59.993	-60.682	-63.319	-0.514	119.275
2.045	-2.096	-10.396	-61.286	-69.947	-60.951	-80.122	-0.55	106.76
2.14475	-2.175	-26.194	-61.457	-84.89	-60.677	-88.65	-0.585	94.122
2.2445	-2.262	-41.91	-60.97	-88.939	-60.445	-98.792	-0.618	81.451
2.34425	-2.337	-57.498	-61.313	-95.138	-59.844	-101.964	-0.648	68.729
2.444	-2.437	-73.127	-59.559	-110.173	-59.123	-114.05	-0.685	55.952
2.54375	-2.529	-88.61	-59.205	-120.353	-58.263	-127.727	-0.719	43.1
2.6435	-2.617	-104.137	-58.369	-132.956	-56.935	-140.183	-0.76	30.216
2.74325	-2.723	-119.548	-58.318	-147.216	-56.712	-152.428	-0.798	17.301
2.843	-2.823	-135.02	-57.701	-160.759	-56.228	-163.087	-0.84	4.286
2.94275	-2.919	-150.424	-57.685	-176.644	-55.179	-175.902	-0.882	-8.769
3.0425	-3.024	-165.805	-57.2	166.451	-54.54	171.473	-0.939	-21.875
3.14225	-3.127	178.88	-57.542	147.42	-53.785	158.659	-0.998	-35.041
3.242	-3.216	163.577	-57.62	124.578	-53.628	143.922	-1.062	-48.234
3.34175	-3.318	148.392	-56.48	91.728	-52.903	132.038	-1.136	-61.509
3.4415	-3.42	133.273	-55.084	62.904	-52.781	116.621	-1.222	-74.907
3.54125	-3.521	118.096	-52.163	34.383	-52.346	104.753	-1.314	-88.31
3.641	-3.621	103.081	-48.939	9.262	-52.384	89.43	-1.421	-101.77
3.74075	-3.743	88.001	-45.91	-11.133	-52.206	75.889	-1.542	-115.375
3.8405	-3.869	72.967	-42.565	-28.827	-52.061	63.359	-1.663	-128.977
3.94025	-4.019	57.821	-39.302	-45.574	-51.939	51.816	-1.808	-142.684
4.04	-4.193	42.557	-36.12	-62.04	-52.098	39.125	-1.971	-156.513
4.13975	-4.389	26.995	-32.904	-77.708	-51.907	27.966	-2.15	-170.421
4.2395	-4.633	11.308	-29.83	-94.211	-52.159	15.133	-2.346	175.531
4.33925	-4.907	-4.697	-26.778	-110.905	-52.766	3.956	-2.567	161.389
4.439	-5.242	-21.038	-23.791	-128.301	-53.099	-4.338	-2.811	147.172
4.53875	-5.621	-37.665	-20.905	-146.334	-52.982	-8.041	-3.087	132.811
4.6385	-6.074	-54.7	-18.087	-165.18	-52.701	-14.783	-3.402	118.384
4.73825	-6.592	-72.03	-15.367	175.145	-52.259	-18.299	-3.749	103.853
4.838	-7.183	-89.803	-12.751	154.707	-51.12	-24.968	-4.15	89.242
4.93775	-7.853	-107.596	-10.266	133.498	-49.541	-32.456	-4.606	74.459
5.0375	-8.584	-125.621	-7.921	111.554	-48.07	-42.459	-5.143	59.52
5.13725	-9.386	-143.572	-5.726	89.002	-46.455	-55.906	-5.756	44.604
5.237	-10.212	-161.224	-3.693	66.023	-44.935	-70.323	-6.477	29.529
5.33675	-11.093	-178.502	-1.816	42.68	-43.599	-87.222	-7.341	14.622
5.4365	-11.977	164.743	-0.108	19.095	-42.363	-104.872	-8.372	-0.265
5.53625	-12.905	148.671	1.447	-4.62	-41.29	-123.646	-9.648	-14.762
5.636	-13.821	133.572	2.846	-28.369	-40.414	-143.025	-11.204	-28.601
5.73575	-14.784	119.414	4.108	-52.051	-39.592	-163.022	-13.139	-40.984
5.8355	-15.757	107.003	5.224	-75.573	-39.025	176.447	-15.564	-50.082
5.93525	-16.763	95.688	6.224	-98.883	-38.414	155.879	-18.468	-52.319
6.035	-17.76	86.982	7.103	-121.885	-38.014	134.885	-20.974	-41.395
6.13475	-18.721	79.514	7.877	-144.571	-37.709	113.603	-20.824	-22.8
6.2345	-19.572	74.495	8.561	-166.885	-37.45	92.354	-18.52	-15.703
6.33425	-20.156	70.631	9.162	171.168	-37.228	71.088	-16.258	-20.042
6.434	-20.55	68.351	9.694	149.673	-37.096	50.313	-14.465	-29.631
6.53375	-20.588	65.893	10.169	128.548	-36.965	28.925	-13.129	-41.836
6.6335	-20.533	64.103	10.597	107.817	-36.87	7.939	-12.14	-55.261
6.73325	-20.195	61.471	10.985	87.462	-36.793	-12.97	-11.394	-69.245
6.833	-19.855	58.909	11.337	67.383	-36.649	-33.485	-10.824	-83.662
6.93275	-19.341	55.476	11.661	47.636	-36.603	-54.105	-10.372	-98.218
7.0325	-18.849	52.498	11.967	28.196	-36.475	-74.543	-10.008	-113.02
7.13225	-18.16	48.318	12.25	8.939	-36.354	-94.374	-9.723	-127.867
7.232	-17.562	43.762	12.51	-10.076	-36.262	-113.944	-9.478	-142.824
7.33175	-16.863	38.767	12.748	-28.861	-36.181	-133.078	-9.252	-158.123
7.4315	-16.191	33.396	12.974	-47.488	-36.017	-151.522	-9.052	-173.633
7.53125	-15.444	27.425	13.181	-66.008	-35.721	-170.261	-8.873	170.449
7.631	-14.786	20.368	13.358	-84.347	-35.408	171.536	-8.725	154.461
7.73075	-14.154	12.841	13.509	-102.499	-35.108	153.095	-8.575	138.428
7.8305	-13.65	4.677	13.643	-120.448	-34.805	134.566	-8.438	122.302
7.93025	-13.192	-3.603	13.751	-138.16	-34.522	116.08	-8.259	106.24
8.03	-12.82	-12.221	13.858	-155.687	-34.332	97.863	-8.086	90.051
8.12975	-12.466	-20.801	13.944	-172.979	-34.167	79.721	-7.901	74.022
8.2295	-12.155	-29.324	14.036	169.889	-34.111	61.142	-7.715	57.954
8.32925	-11.752	-38.137	14.126	152.866	-34.308	43.708	-7.536	41.743
8.429	-11.373	-48.137	14.204	135.915	-34.613	28.591	-7.416	25.236
8.52875	-11.112	-58.957	14.256	119.079	-34.604	15.77	-7.429	8.945
8.6285	-11.015	-69.943	14.305	102.611	-34.259	0.86	-7.439	-6.388
8.72825	-10.895	-80.646	14.375	86.132	-34.354	-14.877	-7.441	-22.241
8.828	-10.845	-92.685	14.411	69.725	-34.516	-26.931	-7.602	-38.216
8.92775	-11.021	-104.803	14.433	53.612	-34.012	-38.064	-7.909	-53.42
9.0275	-11.249	-116.451	14.49	37.764	-33.343	-52.495	-8.156	-67.729
9.12725	-11.495	-128.048	14.565	21.846	-33.071	-68.089	-8.357	-82.568
9.227	-11.817	-140.165	14.627	6.043	-32.725	-81.687	-8.706	-97.511
9.32675	-12.195	-152.048	14.706	-9.686	-32.358	-96.533	-9.063	-112.392
9.4265	-12.568	-163.998	14.794	-25.471	-32.052	-111.597	-9.457	-127.706
9.52625	-13.017	-176.309	14.887	-41.278	-31.801	-126.701	-9.876	-143.372
9.626	-13.468	171.581	14.973	-57.106	-31.592	-141.491	-10.339	-159.717
9.72575	-13.957	158.968	15.055	-72.989	-31.392	-156.253	-10.817	-176.667
9.8255	-14.453	146.583	15.124	-88.857	-31.199	-171.126	-11.285	165.462
9.92525	-14.954	133.42	15.174	-104.725	-31.069	174.19	-11.723	146.821
10.025	-15.503	120.264	15.221	-120.589	-30.967	159.531	-12.069	127.232
10.12475	-16.012	106.533	15.25	-136.479	-30.841	145.077	-12.263	107.055
10.2245	-16.542	92.368	15.261	-152.302	-30.792	130.39	-12.324	86.681
10.32425	-17.012	77.053	15.25	-168.059	-30.732	116.023	-12.204	66.379
10.424001	-17.502	61.329	15.228	176.221	-30.75	101.834	-11.939	46.795
10.52375	-17.869	44.7	15.193	160.604	-30.763	87.696	-11.54	28.014
10.6235	-18.236	27.4	15.137	145.093	-30.758	73.867	-11.077	10.152
10.72325	-18.37	9.706	15.07	129.688	-30.839	60.047	-10.591	-6.608
10.823	-18.452	-9.073	15	114.428	-30.876	46.548	-10.113	-22.319
10.92275	-18.314	-27.232	14.922	99.291	-30.931	33.035	-9.657	-37.294
11.0225	-18.124	-46.161	14.84	84.276	-30.965	19.95	-9.253	-51.47
11.12225	-17.828	-63.981	14.76	69.394	-31.068	6.849	-8.895	-65.176
11.222	-17.415	-82.203	14.681	54.633	-31.097	-6.037	-8.582	-78.343
11.32175	-17.02	-99.06	14.601	39.953	-31.153	-18.918	-8.321	-91.22
11.4215	-16.511	-115.822	14.527	25.439	-31.207	-31.555	-8.104	-103.781
11.52125	-16.077	-131.905	14.465	10.964	-31.294	-44.166	-7.94	-116.169
11.621	-15.618	-147.214	14.41	-3.438	-31.339	-56.463	-7.814	-128.449
11.72075	-15.224	-162.234	14.361	-17.758	-31.397	-68.856	-7.737	-140.679
11.8205	-14.829	-176.546	14.32	-32.002	-31.394	-81.268	-7.702	-152.954
11.92025	-14.526	169.209	14.29	-46.191	-31.427	-93.391	-7.715	-165.275
12.02	-14.262	155.627	14.28	-60.335	-31.459	-105.616	-7.769	-177.85
12.11975	-14.036	142.326	14.282	-74.47	-31.464	-117.751	-7.848	169.369
12.2195	-13.909	129.415	14.3	-88.702	-31.439	-129.809	-7.975	156.227
12.31925	-13.857	116.626	14.324	-102.948	-31.445	-141.897	-8.135	142.669
12.419	-13.939	104.173	14.354	-117.255	-31.4	-154.133	-8.319	128.563
12.51875	-14.088	91.977	14.391	-131.597	-31.41	-166.541	-8.553	113.981
12.6185	-14.387	80.229	14.432	-145.985	-31.415	-179.031	-8.821	98.638
12.71825	-14.769	68.623	14.479	-160.448	-31.417	168.698	-9.106	82.971
12.818	-15.327	57.558	14.53	-175.046	-31.479	156.436	-9.393	66.723
12.91775	-15.971	46.872	14.573	170.245	-31.503	144.369	-9.638	50.07
13.0175	-16.83	36.538	14.606	155.432	-31.527	132.387	-9.836	32.892
13.11725	-17.83	26.81	14.628	140.573	-31.543	120.176	-9.931	15.294
13.217	-19.149	17.398	14.634	125.647	-31.612	108.194	-9.965	-2.65
13.31675	-20.758	9.221	14.63	110.688	-31.643	96.162	-9.894	-20.688
13.4165	-22.978	2.304	14.605	95.69	-31.687	84.144	-9.743	-38.555
13.51625	-26.002	-0.622	14.569	80.705	-31.746	72.2	-9.53	-56.07
13.616	-30.639	7.287	14.52	65.714	-31.798	60.299	-9.267	-73.179
13.71575	-33.706	55.478	14.456	50.707	-31.86	48.503	-8.992	-89.801
13.8155	-29.021	90.706	14.376	35.742	-31.967	36.752	-8.688	-105.967
13.91525	-24.391	94.693	14.287	20.811	-32.021	25.093	-8.382	-121.708
14.015	-21.354	90.708	14.19	5.935	-32.115	13.657	-8.06	-136.884
14.11475	-18.981	83.307	14.082	-8.962	-32.224	2.22	-7.74	-151.788
14.2145	-17.151	74.775	13.964	-23.823	-32.321	-8.935	-7.437	-166.2
14.31425	-15.536	65.48	13.841	-38.643	-32.389	-19.626	-7.156	179.512
14.414	-14.206	55.684	13.7	-53.477	-32.414	-30.798	-6.897	165.409
14.51375	-13.006	45.633	13.556	-68.221	-32.431	-41.665	-6.636	151.483
14.6135	-11.998	35.159	13.403	-82.974	-32.439	-52.512	-6.398	137.716
14.71325	-11.097	24.661	13.238	-97.691	-32.412	-63.568	-6.165	124.039
14.813	-10.327	13.821	13.057	-112.39	-32.406	-74.358	-5.944	110.366
14.91275	-9.605	3.093	12.876	-126.984	-32.367	-84.993	-5.749	96.895
15.0125	-8.981	-7.904	12.682	-141.538	-32.357	-95.62	-5.549	83.389
15.11225	-8.398	-18.974	12.489	-156.061	-32.246	-106.301	-5.367	70.026
15.212	-7.89	-30.158	12.28	-170.506	-32.129	-116.99	-5.196	56.629
15.31175	-7.419	-41.47	12.069	175.04	-31.989	-127.715	-5.043	43.203
15.4115	-7.004	-52.824	11.838	160.69	-31.832	-138.875	-4.888	29.884
15.51125	-6.647	-64.021	11.612	146.47	-31.665	-149.756	-4.729	16.586
15.611	-6.261	-75.499	11.397	132.241	-31.463	-161.077	-4.588	3.42
15.71075	-5.925	-87.054	11.166	117.96	-31.254	-172.422	-4.452	-9.766
15.8105	-5.597	-98.763	10.934	103.801	-31.084	176.037	-4.348	-22.771
15.91025	-5.304	-110.471	10.691	89.619	-30.844	164.314	-4.243	-35.726
16.01	-5.025	-122.2	10.431	75.555	-30.607	152.514	-4.171	-48.751
16.10975	-4.782	-134.037	10.165	61.508	-30.333	139.991	-4.103	-61.755
16.2095	-4.551	-145.928	9.887	47.613	-30.098	127.467	-4.052	-74.7
16.30925	-4.365	-157.929	9.604	33.834	-29.949	114.292	-4.034	-87.659
16.409	-4.18	-169.761	9.334	20.226	-29.832	100.788	-4.028	-100.558
16.50875	-4.042	178.279	9.059	6.717	-29.81	87.438	-4.05	-113.369
16.6085	-3.908	166.567	8.805	-6.682	-29.879	74.347	-4.098	-126.044
16.70825	-3.809	154.871	8.548	-20.002	-30.035	61.49	-4.156	-138.896
16.807999	-3.712	143.487	8.313	-33.255	-30.191	49.741	-4.217	-151.61
16.90775	-3.629	132.118	8.087	-46.475	-30.341	38.026	-4.274	-164.485
17.0075	-3.55	120.953	7.884	-59.693	-30.366	27.342	-4.323	-177.571
17.10725	-3.465	109.736	7.692	-72.928	-30.289	15.949	-4.359	169.141
17.206999	-3.397	98.653	7.518	-86.251	-30.22	4.71	-4.386	155.537
17.306751	-3.324	87.539	7.347	-99.525	-30.087	-6.7	-4.404	141.983
17.406501	-3.287	76.402	7.178	-112.958	-29.961	-18.273	-4.421	128.143
17.506251	-3.242	65.235	7.024	-126.408	-29.792	-30.2	-4.421	114.044
17.606001	-3.237	53.964	6.858	-139.962	-29.608	-42.1	-4.395	99.713
17.705751	-3.221	42.64	6.707	-153.567	-29.404	-54.647	-4.359	85.189
17.8055	-3.234	30.998	6.537	-167.315	-29.2	-67.38	-4.295	70.543
17.90525	-3.259	19.291	6.362	178.939	-29.017	-80.767	-4.224	55.82
18.005	-3.316	7.243	6.17	165.117	-28.85	-94.655	-4.144	41.085
18.10475	-3.404	-4.852	5.972	151.296	-28.803	-109.141	-4.041	26.396
18.2045	-3.515	-17.178	5.766	137.51	-28.873	-123.562	-3.939	11.939
18.30425	-3.646	-29.539	5.556	123.779	-29.091	-137.664	-3.847	-2.224
18.404	-3.778	-42.171	5.344	110.036	-29.363	-151.003	-3.745	-16.092
18.50375	-3.894	-55.076	5.137	96.202	-29.66	-164.046	-3.626	-29.553
18.6035	-3.997	-68.38	4.931	82.316	-29.933	-176.232	-3.51	-42.801
18.703249	-4.088	-82.171	4.717	68.254	-30.184	172.081	-3.383	-55.831
18.802999	-4.163	-96.42	4.482	54.174	-30.354	160.279	-3.256	-68.602
18.902749	-4.246	-111.034	4.219	40.024	-30.489	148.624	-3.153	-81.16
19.002499	-4.302	-126.051	3.93	25.915	-30.59	136.914	-3.051	-93.431
19.102251	-4.353	-141.354	3.629	11.841	-30.673	124.915	-2.948	-105.526
19.202001	-4.353	-156.82	3.308	-2.203	-30.765	112.872	-2.855	-117.377
19.301751	-4.355	-172.5	2.97	-16.261	-30.857	100.788	-2.783	-129.062
19.401501	-4.31	171.813	2.62	-30.267	-30.944	88.574	-2.72	-140.534
19.501251	-4.257	156.031	2.238	-44.105	-31.151	76.252	-2.686	-151.839
19.601	-4.18	140.514	1.845	-57.968	-31.253	64.34	-2.658	-163.135
19.70075	-4.071	125.021	1.453	-71.651	-31.413	52.174	-2.632	-174.363
19.8005	-3.957	109.889	1.03	-85.239	-31.51	40.143	-2.631	174.371
19.90025	-3.802	95.006	0.606	-98.801	-31.678	28.441	-2.626	163.203
20	-3.667	80.422	0.163	-112.201	-31.862	16.579	-2.635	151.912
