! Mini-Circuits								
! S2P DATA File Format								
! Type: LOW PASS FILTER								
! Model: LFCW-123+								
! All S Parameters are in dB deg format								
! TEST CONDITIONS: INPUT POWER = 0 dBm @ Temperature = +25 deg C
# MHZ S DB R 50
!Frequency          S11 dB    S11 DEG     S21 dB    S21 DEG     S12 dB    S12 DEG     S22 dB    S22 DEG
  10.0000     -6.123478E+001 -8.058782E+001  6.205007E-002 -2.427346E-002  6.022254E-002 -4.262109E-002 -5.905582E+001 -8.335452E+001
  20.0000     -5.779391E+001 -7.508191E+001  6.895658E-002 -2.983898E-001  5.576127E-002 -3.164608E-001 -5.725934E+001 -9.099643E+001
  30.0000     -6.435078E+001 -4.587870E+001  6.708353E-002 -6.108652E-001  6.099550E-002 -6.223503E-001 -6.506256E+001 -3.324797E+001
  40.0000     -5.387376E+001  2.687613E+001  6.301457E-002 -8.934672E-001  5.031346E-002 -8.993189E-001 -5.663090E+001  2.689838E+001
  50.0000     -5.117392E+001  1.577656E+002  1.289104E-001 -1.263960E+000  1.011388E-001 -1.267621E+000 -5.360831E+001  1.463847E+002
 100.0000     -4.901638E+001  4.301173E+001  7.544714E-002 -2.331709E+000  6.374520E-002 -2.330075E+000 -5.016784E+001  5.086177E+001
 150.0000     -4.432389E+001  1.928447E+001  5.931513E-002 -3.372744E+000  4.864379E-002 -3.385487E+000 -4.434591E+001  2.128685E+001
 200.0000     -4.314041E+001  1.093684E+001  5.557420E-002 -4.411419E+000  4.892382E-002 -4.395905E+000 -4.290446E+001  9.401239E+000
 250.0000     -4.104763E+001  1.098075E+000  5.191189E-002 -5.401528E+000  4.048944E-002 -5.428329E+000 -4.015859E+001 -3.477208E+000
 300.0000     -4.024975E+001 -1.125765E+001  4.828643E-002 -6.442887E+000  3.388730E-002 -6.448136E+000 -3.882445E+001 -1.330169E+001
 350.0000     -3.948421E+001 -2.285910E+001  4.598133E-002 -7.411119E+000  3.655719E-002 -7.408216E+000 -3.707788E+001 -1.652496E+001
 400.0000     -3.855779E+001 -3.039880E+001  4.169718E-002 -8.403774E+000  3.884677E-002 -8.418212E+000 -3.547329E+001 -2.469095E+001
 450.0000     -3.728594E+001 -3.836102E+001  4.119822E-002 -9.412557E+000  3.290860E-002 -9.403204E+000 -3.489428E+001 -3.189135E+001
 500.0000     -3.700779E+001 -4.697645E+001  4.143617E-002 -1.038403E+001  3.979797E-002 -1.039373E+001 -3.373502E+001 -3.471498E+001
 550.0000     -3.574566E+001 -5.542976E+001  3.737749E-002 -1.137894E+001  3.620859E-002 -1.136322E+001 -3.295105E+001 -3.893206E+001
 600.0000     -3.546974E+001 -6.121030E+001  4.013807E-002 -1.235819E+001  3.163417E-002 -1.235067E+001 -3.217485E+001 -4.374919E+001
 650.0000     -3.434302E+001 -6.551714E+001  4.106284E-002 -1.331440E+001  3.326004E-002 -1.329534E+001 -3.142653E+001 -4.596039E+001
 700.0000     -3.397866E+001 -7.283791E+001  3.804060E-002 -1.427932E+001  2.699164E-002 -1.431056E+001 -3.056820E+001 -4.894537E+001
 750.0000     -3.302515E+001 -7.620058E+001  3.640522E-002 -1.526970E+001  3.029355E-002 -1.525415E+001 -3.035677E+001 -5.258617E+001
 800.0000     -3.263350E+001 -7.762799E+001  3.923364E-002 -1.623423E+001  2.952024E-002 -1.623937E+001 -2.993118E+001 -5.582088E+001
 850.0000     -3.230925E+001 -8.272510E+001  3.383799E-002 -1.724078E+001  2.942614E-002 -1.722626E+001 -2.952764E+001 -5.803336E+001
 900.0000     -3.164737E+001 -8.667673E+001  3.071973E-002 -1.821116E+001  2.590434E-002 -1.820007E+001 -2.918883E+001 -6.085445E+001
 950.0000     -3.119393E+001 -8.832055E+001  3.155913E-002 -1.917285E+001  2.931249E-002 -1.919503E+001 -2.880326E+001 -6.203182E+001
1000.0000     -3.078709E+001 -8.970312E+001  3.288651E-002 -2.014622E+001  2.676164E-002 -2.015403E+001 -2.868218E+001 -6.528024E+001
1050.0000     -3.049557E+001 -9.609700E+001  2.705338E-002 -2.110759E+001  3.027658E-002 -2.114118E+001 -2.824503E+001 -6.776425E+001
1100.0000     -2.993614E+001 -9.786940E+001  3.022928E-002 -2.211013E+001  2.313160E-002 -2.210505E+001 -2.787432E+001 -6.901537E+001
1150.0000     -2.977830E+001 -9.855057E+001  3.067398E-002 -2.306657E+001  2.414082E-002 -2.309002E+001 -2.765566E+001 -7.044177E+001
1200.0000     -2.978490E+001 -1.004216E+002  2.367022E-002 -2.403572E+001  2.242603E-002 -2.403973E+001 -2.754660E+001 -7.244546E+001
1250.0000     -2.922721E+001 -1.039701E+002  2.796807E-002 -2.501043E+001  1.765969E-002 -2.503436E+001 -2.733251E+001 -7.519649E+001
1300.0000     -2.903423E+001 -1.077827E+002  2.568715E-002 -2.597364E+001  2.383396E-002 -2.597826E+001 -2.716566E+001 -7.639856E+001
1350.0000     -2.888806E+001 -1.086319E+002  2.218241E-002 -2.692378E+001  2.124692E-002 -2.698690E+001 -2.696503E+001 -7.665710E+001
1400.0000     -2.886299E+001 -1.134188E+002  2.704720E-002 -2.791105E+001  2.369030E-002 -2.793431E+001 -2.674977E+001 -7.831843E+001
1450.0000     -2.869754E+001 -1.160753E+002  2.300234E-002 -2.887651E+001  2.132523E-002 -2.889302E+001 -2.669335E+001 -7.872997E+001
1500.0000     -2.867403E+001 -1.176467E+002  2.263771E-002 -2.981683E+001  1.765557E-002 -2.980761E+001 -2.648804E+001 -7.954266E+001
1550.0000     -2.849121E+001 -1.217625E+002  2.771961E-002 -3.082675E+001  2.158126E-002 -3.081777E+001 -2.636847E+001 -8.215086E+001
1600.0000     -2.851165E+001 -1.256084E+002  2.000306E-002 -3.177494E+001  1.420161E-002 -3.180219E+001 -2.638625E+001 -8.228100E+001
1650.0000     -2.844707E+001 -1.297221E+002  2.097128E-002 -3.272589E+001  1.548891E-002 -3.276037E+001 -2.624813E+001 -8.165232E+001
1700.0000     -2.863189E+001 -1.349884E+002  2.214635E-002 -3.375612E+001  1.451999E-002 -3.374541E+001 -2.610594E+001 -8.198753E+001
1750.0000     -2.804489E+001 -1.361424E+002  1.589076E-002 -3.468205E+001  1.241114E-002 -3.473171E+001 -2.588213E+001 -8.389220E+001
1800.0000     -2.838975E+001 -1.409277E+002  1.606150E-002 -3.564138E+001  1.296709E-002 -3.565946E+001 -2.584723E+001 -8.374342E+001
1850.0000     -2.812659E+001 -1.427563E+002  1.804845E-002 -3.665688E+001  1.208693E-002 -3.664088E+001 -2.587827E+001 -8.485265E+001
1900.0000     -2.821305E+001 -1.470858E+002  1.954542E-002 -3.759589E+001  9.343061E-003 -3.755135E+001 -2.589848E+001 -8.360284E+001
1950.0000     -2.849072E+001 -1.502210E+002  1.718788E-002 -3.856927E+001  1.628587E-002 -3.857126E+001 -2.592043E+001 -8.432388E+001
2000.0000     -2.799816E+001 -1.578459E+002  1.694550E-002 -3.953802E+001  5.508663E-003 -3.953372E+001 -2.569413E+001 -8.385400E+001
2050.0000     -2.797003E+001 -1.605945E+002  1.966447E-002 -4.050042E+001  1.068603E-002 -4.050452E+001 -2.585176E+001 -8.475779E+001
2100.0000     -2.777981E+001 -1.623712E+002  1.324789E-002 -4.148193E+001  7.921643E-003 -4.157420E+001 -2.594766E+001 -8.576757E+001
2150.0000     -2.831188E+001 -1.673334E+002  1.467736E-002 -4.242178E+001  6.661560E-003 -4.242980E+001 -2.617341E+001 -8.510825E+001
2200.0000     -2.825015E+001 -1.715777E+002  1.992370E-002 -4.347949E+001  1.010551E-002 -4.344733E+001 -2.651702E+001 -8.412090E+001
2250.0000     -2.842540E+001 -1.779891E+002  7.154680E-003 -4.442433E+001 -6.842201E-004 -4.445373E+001 -2.693009E+001 -8.365899E+001
2300.0000     -2.858538E+001  1.764663E+002  1.154480E-002 -4.539752E+001  2.195075E-004 -4.542165E+001 -2.683673E+001 -8.233261E+001
2350.0000     -2.834382E+001  1.727134E+002  9.702604E-003 -4.638048E+001  1.025168E-002 -4.642924E+001 -2.707627E+001 -8.215322E+001
2400.0000     -2.839266E+001  1.704096E+002  7.367107E-003 -4.735466E+001 -2.117989E-003 -4.740468E+001 -2.746591E+001 -8.237060E+001
2450.0000     -2.853915E+001  1.644599E+002  1.174927E-002 -4.832308E+001 -1.283616E-003 -4.837213E+001 -2.750991E+001 -7.974212E+001
2500.0000     -2.898065E+001  1.599124E+002  1.371445E-002 -4.929928E+001  1.184943E-002 -4.924233E+001 -2.790359E+001 -7.708112E+001
2550.0000     -2.902817E+001  1.548056E+002  1.344505E-002 -5.032115E+001  3.528894E-003 -5.026982E+001 -2.840489E+001 -7.451211E+001
2600.0000     -2.869133E+001  1.444335E+002  7.709759E-003 -5.128806E+001 -7.767296E-003 -5.132984E+001 -2.850930E+001 -7.318912E+001
2650.0000     -2.835226E+001  1.412621E+002  1.421090E-002 -5.230270E+001  4.609397E-003 -5.229592E+001 -2.856982E+001 -7.020870E+001
2700.0000     -2.850179E+001  1.319244E+002  1.040404E-002 -5.327641E+001 -5.920525E-004 -5.328765E+001 -2.887488E+001 -6.405154E+001
2750.0000     -2.820825E+001  1.255536E+002  6.539565E-003 -5.430433E+001 -1.115570E-003 -5.429633E+001 -2.910282E+001 -5.984224E+001
2800.0000     -2.804632E+001  1.212621E+002  1.228208E-002 -5.527776E+001 -6.070684E-004 -5.533058E+001 -2.928716E+001 -5.625406E+001
2850.0000     -2.767176E+001  1.125794E+002  1.502718E-002 -5.626221E+001  7.455095E-005 -5.624825E+001 -2.943526E+001 -4.835835E+001
2900.0000     -2.750219E+001  1.038242E+002  9.931952E-003 -5.726591E+001 -6.216043E-003 -5.727924E+001 -2.955129E+001 -4.096926E+001
2950.0000     -2.680698E+001  9.814647E+001  6.529742E-003 -5.829979E+001 -9.952903E-003 -5.826236E+001 -2.871248E+001 -3.242537E+001
3000.0000     -2.623533E+001  9.158769E+001  1.101345E-002 -5.930458E+001  4.368389E-003 -5.932120E+001 -2.856086E+001 -2.958148E+001
3050.0000     -2.570112E+001  8.884412E+001  6.987728E-003 -6.030538E+001 -9.063846E-003 -6.032146E+001 -2.801308E+001 -2.409380E+001
3100.0000     -2.541738E+001  8.455653E+001  4.916585E-003 -6.137508E+001 -1.212040E-002 -6.140376E+001 -2.754553E+001 -2.137649E+001
3150.0000     -2.482407E+001  7.979980E+001  8.170205E-003 -6.237263E+001 -5.240151E-003 -6.237366E+001 -2.689182E+001 -1.824708E+001
3200.0000     -2.421970E+001  7.387463E+001  6.174072E-003 -6.339199E+001 -1.252044E-002 -6.335652E+001 -2.624177E+001 -1.171701E+001
3250.0000     -2.368972E+001  7.074823E+001 -3.452489E-003 -6.441688E+001 -1.896997E-002 -6.446254E+001 -2.533920E+001 -1.000747E+001
3300.0000     -2.292583E+001  6.813099E+001 -6.433025E-003 -6.542196E+001 -1.210223E-002 -6.541601E+001 -2.484035E+001 -1.039607E+001
3350.0000     -2.242373E+001  6.432374E+001 -1.456610E-002 -6.648565E+001 -2.950751E-002 -6.645164E+001 -2.422917E+001 -8.086396E+000
3400.0000     -2.187733E+001  6.128014E+001 -1.928665E-002 -6.751456E+001 -2.872024E-002 -6.746435E+001 -2.340574E+001 -8.598769E+000
3450.0000     -2.159247E+001  5.853630E+001 -2.480370E-002 -6.848036E+001 -3.640572E-002 -6.853688E+001 -2.304769E+001 -6.858037E+000
3500.0000     -2.090177E+001  5.640547E+001 -3.033481E-002 -6.953273E+001 -3.767221E-002 -6.950488E+001 -2.237095E+001 -6.612856E+000
3550.0000     -2.043120E+001  5.126055E+001 -3.306858E-002 -7.053323E+001 -4.964828E-002 -7.056285E+001 -2.178094E+001 -4.368890E+000
3600.0000     -1.978803E+001  4.969122E+001 -4.355989E-002 -7.158662E+001 -5.115856E-002 -7.160336E+001 -2.112553E+001 -5.863296E+000
3650.0000     -1.961282E+001  4.867406E+001 -4.310470E-002 -7.261224E+001 -3.854180E-002 -7.264506E+001 -2.082098E+001 -7.391385E+000
3700.0000     -1.903202E+001  4.689643E+001 -5.077302E-002 -7.362840E+001 -4.611494E-002 -7.370455E+001 -2.023729E+001 -6.020322E+000
3750.0000     -1.865244E+001  4.442997E+001 -5.312660E-002 -7.471188E+001 -5.824160E-002 -7.473773E+001 -1.974167E+001 -6.703906E+000
3800.0000     -1.850058E+001  4.281598E+001 -6.306504E-002 -7.568436E+001 -6.518669E-002 -7.572214E+001 -1.927831E+001 -6.770829E+000
3850.0000     -1.797762E+001  3.967645E+001 -6.893574E-002 -7.676030E+001 -7.761845E-002 -7.670510E+001 -1.894732E+001 -6.384824E+000
3900.0000     -1.766753E+001  3.933425E+001 -7.831764E-002 -7.776449E+001 -8.499242E-002 -7.781784E+001 -1.856431E+001 -7.773161E+000
3950.0000     -1.711601E+001  3.727242E+001 -9.336190E-002 -7.883476E+001 -8.440195E-002 -7.878069E+001 -1.808681E+001 -9.872410E+000
4000.0000     -1.687429E+001  3.561368E+001 -8.957957E-002 -7.983455E+001 -1.070316E-001 -7.992569E+001 -1.761882E+001 -9.568060E+000
4050.0000     -1.671682E+001  3.406765E+001 -1.068515E-001 -8.090000E+001 -1.103398E-001 -8.093507E+001 -1.733254E+001 -1.048171E+001
4100.0000     -1.647948E+001  3.233338E+001 -1.045216E-001 -8.188507E+001 -1.185580E-001 -8.196130E+001 -1.707957E+001 -1.171261E+001
4150.0000     -1.598311E+001  3.063916E+001 -1.333835E-001 -8.296204E+001 -1.276509E-001 -8.298524E+001 -1.663552E+001 -1.226458E+001
4200.0000     -1.583533E+001  2.970351E+001 -1.264104E-001 -8.399746E+001 -1.484135E-001 -8.400941E+001 -1.635773E+001 -1.381124E+001
4250.0000     -1.559482E+001  2.798160E+001 -1.433288E-001 -8.496816E+001 -1.524705E-001 -8.509305E+001 -1.604971E+001 -1.451148E+001
4300.0000     -1.520123E+001  2.721569E+001 -1.559957E-001 -8.611790E+001 -1.603499E-001 -8.609366E+001 -1.573560E+001 -1.575062E+001
4350.0000     -1.504596E+001  2.591813E+001 -1.543684E-001 -8.706715E+001 -1.692557E-001 -8.712800E+001 -1.550940E+001 -1.613984E+001
4400.0000     -1.472446E+001  2.450754E+001 -1.820745E-001 -8.815903E+001 -1.809670E-001 -8.816918E+001 -1.522776E+001 -1.784711E+001
4450.0000     -1.452962E+001  2.326264E+001 -1.868235E-001 -8.911149E+001 -2.024885E-001 -8.903611E+001 -1.501303E+001 -1.894930E+001
4500.0000     -1.433928E+001  2.179404E+001 -1.979873E-001 -9.018531E+001 -1.944379E-001 -9.024998E+001 -1.476869E+001 -1.981834E+001
4550.0000     -1.419448E+001  2.061842E+001 -2.009878E-001 -9.122857E+001 -2.074404E-001 -9.121048E+001 -1.449091E+001 -2.133399E+001
4600.0000     -1.393998E+001  1.902726E+001 -2.261646E-001 -9.219453E+001 -2.319810E-001 -9.224271E+001 -1.427569E+001 -2.238071E+001
4650.0000     -1.382830E+001  1.875933E+001 -2.180477E-001 -9.319018E+001 -2.208445E-001 -9.325941E+001 -1.415183E+001 -2.309603E+001
4700.0000     -1.368540E+001  1.782005E+001 -2.365550E-001 -9.421957E+001 -2.437690E-001 -9.429160E+001 -1.394405E+001 -2.503459E+001
4750.0000     -1.356850E+001  1.641008E+001 -2.447581E-001 -9.529514E+001 -2.533954E-001 -9.522920E+001 -1.373202E+001 -2.646272E+001
4800.0000     -1.334849E+001  1.500733E+001 -2.544616E-001 -9.624271E+001 -2.594812E-001 -9.626255E+001 -1.357919E+001 -2.666898E+001
4850.0000     -1.329701E+001  1.422731E+001 -2.647407E-001 -9.728640E+001 -2.643322E-001 -9.726523E+001 -1.342151E+001 -2.842781E+001
4900.0000     -1.322826E+001  1.321059E+001 -2.663387E-001 -9.829961E+001 -2.825536E-001 -9.821814E+001 -1.328654E+001 -2.954164E+001
4950.0000     -1.309571E+001  1.181187E+001 -2.718788E-001 -9.928751E+001 -2.761621E-001 -9.940292E+001 -1.324173E+001 -3.089524E+001
5000.0000     -1.300818E+001  1.184039E+001 -2.806112E-001 -1.003073E+002 -2.845086E-001 -1.002904E+002 -1.307870E+001 -3.253832E+001
5050.0000     -1.294465E+001  1.046070E+001 -2.863229E-001 -1.013753E+002 -3.001240E-001 -1.013817E+002 -1.294086E+001 -3.359350E+001
5100.0000     -1.280132E+001  9.681901E+000 -2.969913E-001 -1.023957E+002 -3.087341E-001 -1.023216E+002 -1.283193E+001 -3.489424E+001
5150.0000     -1.265728E+001  8.802155E+000 -3.077945E-001 -1.033316E+002 -2.949824E-001 -1.033597E+002 -1.283606E+001 -3.601327E+001
5200.0000     -1.274127E+001  8.013472E+000 -3.106595E-001 -1.044274E+002 -3.142337E-001 -1.044533E+002 -1.272315E+001 -3.786266E+001
5250.0000     -1.265294E+001  7.331540E+000 -3.069424E-001 -1.054392E+002 -3.141805E-001 -1.053843E+002 -1.271269E+001 -3.918557E+001
5300.0000     -1.261097E+001  5.879591E+000 -3.049178E-001 -1.064436E+002 -3.188175E-001 -1.064839E+002 -1.262917E+001 -4.011465E+001
5350.0000     -1.265671E+001  5.876080E+000 -3.103239E-001 -1.075275E+002 -3.330085E-001 -1.074641E+002 -1.251625E+001 -4.205340E+001
5400.0000     -1.248340E+001  5.049152E+000 -3.153873E-001 -1.085116E+002 -3.256893E-001 -1.084877E+002 -1.254026E+001 -4.343761E+001
5450.0000     -1.263539E+001  4.265937E+000 -3.216705E-001 -1.095307E+002 -3.275675E-001 -1.095007E+002 -1.253871E+001 -4.447017E+001
5500.0000     -1.262530E+001  3.504885E+000 -3.218871E-001 -1.105614E+002 -3.360837E-001 -1.106004E+002 -1.250191E+001 -4.609615E+001
5550.0000     -1.266481E+001  2.525887E+000 -3.246411E-001 -1.115931E+002 -3.254759E-001 -1.115289E+002 -1.249944E+001 -4.745207E+001
5600.0000     -1.263899E+001  1.667832E+000 -3.268937E-001 -1.126682E+002 -3.353381E-001 -1.126856E+002 -1.246822E+001 -4.875157E+001
5650.0000     -1.269912E+001  1.429381E+000 -3.230366E-001 -1.137021E+002 -3.387040E-001 -1.137049E+002 -1.245729E+001 -5.053604E+001
5700.0000     -1.272096E+001  6.654371E-001 -3.288280E-001 -1.147884E+002 -3.390895E-001 -1.147547E+002 -1.250596E+001 -5.192560E+001
5750.0000     -1.281584E+001  3.527800E-001 -3.248629E-001 -1.157990E+002 -3.328093E-001 -1.157439E+002 -1.260123E+001 -5.364958E+001
5800.0000     -1.287491E+001 -6.178867E-001 -3.268091E-001 -1.168298E+002 -3.287923E-001 -1.168854E+002 -1.262531E+001 -5.481576E+001
5850.0000     -1.298022E+001 -1.178400E+000 -3.161036E-001 -1.179314E+002 -3.333655E-001 -1.179468E+002 -1.264776E+001 -5.635075E+001
5900.0000     -1.297633E+001 -1.401644E+000 -3.308165E-001 -1.189614E+002 -3.377501E-001 -1.189274E+002 -1.271299E+001 -5.818972E+001
5950.0000     -1.312704E+001 -2.419861E+000 -3.138271E-001 -1.200646E+002 -3.154677E-001 -1.200361E+002 -1.284269E+001 -5.917862E+001
6000.0000     -1.333371E+001 -2.743328E+000 -3.077570E-001 -1.211083E+002 -3.285547E-001 -1.210485E+002 -1.294252E+001 -6.126076E+001
6050.0000     -1.334242E+001 -2.880613E+000 -3.094176E-001 -1.222829E+002 -3.114206E-001 -1.222508E+002 -1.305100E+001 -6.333813E+001
6100.0000     -1.353475E+001 -3.953209E+000 -3.044105E-001 -1.232982E+002 -3.062257E-001 -1.232726E+002 -1.320204E+001 -6.456815E+001
6150.0000     -1.365341E+001 -4.441817E+000 -2.996491E-001 -1.244543E+002 -3.130497E-001 -1.244632E+002 -1.322153E+001 -6.579077E+001
6200.0000     -1.373598E+001 -5.631050E+000 -2.875120E-001 -1.255488E+002 -3.033236E-001 -1.254824E+002 -1.330572E+001 -6.762691E+001
6250.0000     -1.383072E+001 -5.531532E+000 -2.864457E-001 -1.266594E+002 -2.948387E-001 -1.266992E+002 -1.349853E+001 -6.919374E+001
6300.0000     -1.409663E+001 -5.557571E+000 -2.844636E-001 -1.277468E+002 -2.941683E-001 -1.277331E+002 -1.363636E+001 -7.129893E+001
6350.0000     -1.434213E+001 -6.265957E+000 -2.697312E-001 -1.289314E+002 -2.890606E-001 -1.289449E+002 -1.390515E+001 -7.339347E+001
6400.0000     -1.453163E+001 -7.057814E+000 -2.712607E-001 -1.300541E+002 -2.799507E-001 -1.300528E+002 -1.396039E+001 -7.458201E+001
6450.0000     -1.464736E+001 -7.629214E+000 -2.686168E-001 -1.311626E+002 -2.763996E-001 -1.312029E+002 -1.419098E+001 -7.649773E+001
6500.0000     -1.477891E+001 -7.199865E+000 -2.598239E-001 -1.323850E+002 -2.843522E-001 -1.323381E+002 -1.428000E+001 -7.833857E+001
6550.0000     -1.501806E+001 -7.564382E+000 -2.609437E-001 -1.335103E+002 -2.746440E-001 -1.334841E+002 -1.449716E+001 -8.042311E+001
6600.0000     -1.527882E+001 -7.198371E+000 -2.515257E-001 -1.346869E+002 -2.563296E-001 -1.347207E+002 -1.486176E+001 -8.192442E+001
6650.0000     -1.560479E+001 -7.727988E+000 -2.471759E-001 -1.358724E+002 -2.609755E-001 -1.359823E+002 -1.504487E+001 -8.456283E+001
6700.0000     -1.571261E+001 -7.484552E+000 -2.430295E-001 -1.370884E+002 -2.609414E-001 -1.371045E+002 -1.526976E+001 -8.702316E+001
6750.0000     -1.596637E+001 -7.835787E+000 -2.355484E-001 -1.382897E+002 -2.414138E-001 -1.381795E+002 -1.549654E+001 -8.841003E+001
6800.0000     -1.617570E+001 -7.109133E+000 -2.379037E-001 -1.394875E+002 -2.602587E-001 -1.395187E+002 -1.568008E+001 -9.153304E+001
6850.0000     -1.638950E+001 -6.910220E+000 -2.290479E-001 -1.406589E+002 -2.274134E-001 -1.406063E+002 -1.595854E+001 -9.406199E+001
6900.0000     -1.665342E+001 -5.377852E+000 -2.309094E-001 -1.418774E+002 -2.244232E-001 -1.419836E+002 -1.636987E+001 -9.732224E+001
6950.0000     -1.699560E+001 -5.435214E+000 -2.287101E-001 -1.431245E+002 -2.341866E-001 -1.430708E+002 -1.659906E+001 -1.000212E+002
7000.0000     -1.722021E+001 -2.426777E+000 -2.185973E-001 -1.443692E+002 -2.270275E-001 -1.443000E+002 -1.707237E+001 -1.043108E+002
7050.0000     -1.762742E+001  2.671526E+000 -2.134268E-001 -1.456199E+002 -2.329814E-001 -1.456734E+002 -1.803423E+001 -1.108425E+002
7100.0000     -1.771452E+001  4.884162E+000 -2.144168E-001 -1.468369E+002 -2.206942E-001 -1.468232E+002 -1.820732E+001 -1.146525E+002
