#  HZ   S   DB   R     50.00 
! Rohde & Schwarz Vector Network Analyzer 
! Rohde-Schwarz,ZNB8-4Port,1334333044101560,3.32
! Created: UTC 3/21/2023, 5:10:05 PM
! freq[Hz]                db:S11                  ang:S11
 1.000000000000000E4    -2.708546454870065E-2   -4.836357413769583E-1
 1.011989697596740E4    -1.659711633836873E-2   -5.232952348946190E-1
 1.024123148041938E4    -1.637598135845269E-2   -4.498856003633325E-1
 1.036402074888782E4    -1.971790121563355E-2   -4.357493502775876E-1
 1.048828222355332E4    -9.185875641535494E-3   -4.383829127212089E-1
 1.061403355572299E4    -1.386993180561328E-2   -4.170974501550474E-1
 1.074129260833773E4    -1.206919801118750E-2   -4.108072110762577E-1
 1.087007745850980E4    -1.168379381552801E-2   -4.270720083459840E-1
 1.100040640009047E4    -2.057239035586404E-2   -4.584858009855451E-1
 1.113229794626877E4    -1.493710228231697E-2   -3.916135402621099E-1
 1.126577083220134E4    -8.765074018312282E-3   -4.603020946655282E-1
 1.140084401767360E4    -1.171169717288134E-2   -4.707104370431593E-1
 1.153753668979311E4    -1.796105332045205E-2   -4.119273654958198E-1
 1.167586826571499E4    -1.417865413443454E-2   -4.102206358570863E-1
 1.181585839540028E4    -2.111179302529019E-2   -4.001447413237931E-1
 1.195752696440703E4    -1.638069599345561E-2   -3.924509356977269E-1
 1.210089409671510E4    -1.492448251370246E-2   -3.584976440209697E-1
 1.224598015758489E4    -1.569475912826581E-2   -4.255834444241607E-1
 1.239280575645001E4    -1.263348009481493E-2   -4.138400211819654E-1
 1.254139174984498E4    -1.467358896321937E-2   -3.635503431254544E-1
 1.269175924436784E4    -1.853410753305847E-2   -3.480174494351627E-1
 1.284392959967844E4    -2.169433125121447E-2   -3.874215890788512E-1
 1.299792443153239E4    -1.676137384376993E-2   -3.591390948768657E-1
 1.315376561485171E4    -2.091920190346055E-2   -3.298101765330092E-1
 1.331147528683218E4    -2.229761088621211E-2   -4.023684473137586E-1
 1.347107585008777E4    -1.300175326993661E-2   -4.225719893196008E-1
 1.363258997583304E4    -2.115060449196076E-2   -3.950328707766418E-1
 1.379604060710362E4    -1.991191112132485E-2   -3.707760433590772E-1
 1.396145096201513E4    -1.939165125494204E-2   -3.783487086377597E-1
 1.412884453706141E4    -1.959171315646423E-2   -3.909677199256710E-1
 1.429824511045209E4    -2.371860344828217E-2   -3.855011336186352E-1
 1.446967674549047E4    -2.098635007296375E-2   -3.639657823703897E-1
 1.464316379399148E4    -2.082138080090891E-2   -4.036642691984004E-1
 1.481873089974093E4    -1.706540774916103E-2   -3.794531830756975E-1
 1.499640300199629E4    -2.040932443206180E-2   -3.788679691878984E-1
 1.517620533902906E4    -2.398065412360129E-2   -3.815260812772631E-1
 1.535816345171005E4    -2.452573384707586E-2   -3.658003650223957E-1
 1.554230318713732E4    -2.339944061658302E-2   -3.894295919157598E-1
 1.572865070230794E4    -1.688690101098814E-2   -3.733151063609230E-1
 1.591723246783336E4    -2.045412633093318E-2   -3.914797162728879E-1
 1.610807527169965E4    -2.108269729815878E-2   -3.933857929025997E-1
 1.630120622307285E4    -1.960652666577724E-2   -3.481969857173779E-1
 1.649665275614959E4    -2.644039789533115E-2   -3.782921363518254E-1
 1.669444263405424E4    -2.349330930328002E-2   -3.933960411506483E-1
 1.689460395278264E4    -2.174907674542841E-2   -3.776839592081463E-1
 1.709716514519318E4    -2.256640740750242E-2   -3.662805801230625E-1
 1.730215498504557E4    -2.088504752830141E-2   -3.549695637140070E-1
 1.750960259108815E4    -2.499188648433693E-2   -3.707853677507635E-1
 1.771953743119439E4    -2.314980321283865E-2   -3.763637636008386E-1
 1.793198932654852E4    -2.178384430704366E-2   -3.663850209735749E-1
 1.814698845588179E4    -2.252212440519596E-2   -3.814664094860379E-1
 1.836456535975930E4    -2.441286479904750E-2   -3.644980914653345E-1
 1.858475094491838E4    -2.355976794676075E-2   -3.714637451474190E-1
 1.880757648865867E4    -2.492520986601297E-2   -3.574880714152612E-1
 1.903307364328520E4    -2.386890503138157E-2   -3.946384690327391E-1
 1.926127444060467E4    -2.188219173048632E-2   -3.813706154260142E-1
 1.949221129647533E4    -2.230830241166975E-2   -3.774138081797800E-1
 1.972591701541182E4    -2.447014139690395E-2   -3.899004782483481E-1
 1.996242479524495E4    -2.325959118741536E-2   -3.742406692245484E-1
 2.020176823183760E4    -2.177089463827554E-2   -3.815128134071147E-1
 2.044398132385675E4    -2.243636868415706E-2   -3.763254719839138E-1
 2.068909847760314E4    -2.458038368484985E-2   -3.620918263169683E-1
 2.093715451189877E4    -2.730837378552249E-2   -3.834785296723167E-1
 2.118818466303265E4    -2.205087112551765E-2   -3.742541769391176E-1
 2.144222458976629E4    -2.213132550415078E-2   -3.777694820742621E-1
 2.169931037839892E4    -2.425225943703551E-2   -3.838882409515990E-1
 2.195947854789372E4    -2.219661025641823E-2   -3.836021458548265E-1
 2.222276605506506E4    -2.649538328092567E-2   -3.640539802665279E-1
 2.248921029982833E4    -2.651708987632258E-2   -3.874803942788725E-1
 2.275884913051276E4    -2.479043441485557E-2   -3.877907756293133E-1
 2.303172084923743E4    -2.243629595173040E-2   -3.863302134425460E-1
 2.330786421735231E4    -2.592908179836303E-2   -4.066398669135702E-1
 2.358731846094418E4    -2.287537517228401E-2   -4.000238014355130E-1
 2.387012327640890E4    -2.365029177875967E-2   -3.936739714076670E-1
 2.415631883608994E4    -2.426126583088293E-2   -4.030994129406500E-1
 2.444594579398503E4    -2.189986386071461E-2   -4.013638253516095E-1
 2.473904529152120E4    -2.330084743381641E-2   -3.888179429095760E-1
 2.503565896339859E4    -2.420839482974686E-2   -4.224597996405976E-1
 2.533582894350484E4    -2.059986465458404E-2   -4.059511164734316E-1
 2.563959787090014E4    -2.175882064495067E-2   -4.140004933066533E-1
 2.594700889587424E4    -2.236707176770205E-2   -4.165162216045730E-1
 2.625810568607569E4    -2.241571542633751E-2   -4.185094419940613E-1
 2.657293243271491E4    -2.209134684297710E-2   -4.159669068628942E-1
 2.689153385684176E4    -2.266208981295561E-2   -4.387067433548159E-1
 2.721395521569778E4    -2.063347342196612E-2   -4.343557971143701E-1
 2.754024230914521E4    -2.131781272173203E-2   -4.222859448150402E-1
 2.787044148617274E4    -2.445626298734648E-2   -4.244284517195711E-1
 2.820459965147958E4    -1.908542179365002E-2   -4.261092352870953E-1
 2.854276427213793E4    -2.006926781077082E-2   -4.316646558234283E-1
 2.888498338433582E4    -1.905516316976405E-2   -4.423373895245138E-1
 2.923130560020086E4    -2.006847772463601E-2   -4.525071216756700E-1
 2.958178011470515E4    -1.869176279270643E-2   -4.585252087151258E-1
 2.993645671265371E4    -1.941350073246022E-2   -4.428496659103266E-1
 3.029538577575626E4    -1.836725383737349E-2   -4.574093898938651E-1
 3.065861828978415E4    -1.822697427812064E-2   -4.612747305761591E-1
 3.102620585181253E4    -1.862565386760467E-2   -4.736775324140837E-1
 3.139820067754989E4    -1.728405623186349E-2   -4.611167982128470E-1
 3.177465560875546E4    -1.814956749156387E-2   -4.664247585511686E-1
 3.215562412074499E4    -1.601727568012608E-2   -4.733137235217086E-1
 3.254116032998715E4    -1.906312089992129E-2   -4.926819249548169E-1
 3.293131900179065E4    -1.621333393110985E-2   -5.149722847644533E-1
 3.332615555808388E4    -1.727665853613887E-2   -4.955502786760320E-1
 3.372572608528721E4    -1.861428499673209E-2   -5.021731649769181E-1
 3.413008734228021E4    -1.951040694663653E-2   -5.026276539745238E-1
 3.453929676846447E4    -1.781277219611038E-2   -5.173844223053160E-1
 3.495341249192241E4    -1.491337880553808E-2   -5.155972766970132E-1
 3.537249333767466E4    -1.593262709075069E-2   -5.125447292221633E-1
 3.579659883603599E4    -1.439545744207712E-2   -5.284787951110237E-1
 3.622578923107187E4    -1.711674819256786E-2   -5.322716433053868E-1
 3.666012548915565E4    -1.539570744308682E-2   -5.412247007666525E-1
 3.709966930762908E4    -1.602763285607340E-2   -5.528009604137625E-1
 3.754448312356659E4    -1.587615300841435E-2   -5.551461356501894E-1
 3.799463012264405E4    -1.590880140268013E-2   -5.675031746988337E-1
 3.845017424811453E4    -1.518400985424982E-2   -5.720991570503332E-1
 3.891118020989129E4    -1.515679373600951E-2   -5.775451333509827E-1
 3.937771349374013E4    -1.607131360910354E-2   -5.881518755384560E-1
 3.984984037058112E4    -1.523180708620540E-2   -5.901455146737880E-1
 4.032762790590266E4    -1.367605864206694E-2   -6.029663770364829E-1
 4.081114396928827E4    -1.400418535789941E-2   -6.089855666006100E-1
 4.130045724405704E4    -1.387072352138304E-2   -6.205243952817928E-1
 4.179563723702028E4    -1.208390082176328E-2   -6.207654222608474E-1
 4.229675428835518E4    -1.294167883864860E-2   -6.234146442484896E-1
 4.280387958159616E4    -1.368875991866853E-2   -6.290171563251805E-1
 4.331708515374676E4    -1.336310625373434E-2   -6.389475601992051E-1
 4.383644390551231E4    -1.096034387584988E-2   -6.504795802710626E-1
 4.436202961165585E4    -1.255521223253609E-2   -6.548457152067189E-1
 4.489391693147722E4    -1.010806779158813E-2   -6.694408050295940E-1
 4.543218141941869E4    -1.174529610780126E-2   -6.774845147141101E-1
 4.597689953579773E4    -1.141906278118755E-2   -6.751908528585261E-1
 4.652814865766763E4    -1.028708855912140E-2   -6.873355513390833E-1
 4.708600708980911E4    -1.156958449545634E-2   -6.955986492503786E-1
 4.765055407585386E4    -1.073327513879837E-2   -7.075986069587095E-1
 4.822186980954044E4    -1.030532999955330E-2   -7.130849982882401E-1
 4.880003544610618E4    -1.131878650041265E-2   -7.192710269278038E-1
 4.938513311381507E4    -1.047468531473874E-2   -7.446698291225747E-1
 4.997724592562445E4    -9.881968209360985E-3   -7.438489994828430E-1
 5.057645799099057E4    -1.009486365769667E-2   -7.530839427157552E-1
 5.118285442781665E4    -9.361019661004577E-3   -7.671604403419090E-1
 5.179652137454412E4    -1.093077000382854E-2   -7.899829822969802E-1
 5.241754600238797E4    -9.809172621520442E-3   -7.911388151324273E-1
 5.304601652771980E4    -8.663646693664978E-3   -7.895215275409768E-1
 5.368202222459870E4    -7.807345102674366E-3   -8.117501096830404E-1
 5.432565343745310E4    -9.166158824753719E-3   -8.138585685978755E-1
 5.497700159391344E4    -9.436557708385213E-3   -8.259855590001586E-1
 5.563615921779982E4    -7.239154703102947E-3   -8.308610694161642E-1
 5.630321994226530E4    -9.393948075020812E-3   -8.554918247438573E-1
 5.697827852309579E4    -8.945339752238688E-3   -8.630115224735296E-1
 5.766143085217051E4    -8.557265204873165E-3   -8.698629624737004E-1
 5.835277397108323E4    -8.418137040067369E-3   -8.818401948159073E-1
 5.905240608492742E4    -8.705996539951981E-3   -8.927212390038020E-1
 5.976042657624557E4    -7.838901260838681E-3   -9.092306751416240E-1
 6.047693601914679E4    -7.173085651536345E-3   -9.265196068822188E-1
 6.120203619359374E4    -6.384543785347484E-3   -9.259416403347658E-1
 6.193583009985965E4    -7.471877555654469E-3   -9.423667151829173E-1
 6.267842197316001E4    -7.804302654602305E-3   -9.453598866305338E-1
 6.342991729845891E4    -7.787493642106447E-3   -9.744777335596502E-1
 6.419042282545364E4    -6.064392864473963E-3   -9.695303987567988E-1
 6.496004658373768E4    -7.842689524457002E-3   -9.968155343959815E-1
 6.573889789814668E4    -7.436784677858406E-3   -1.011350894688410
 6.652708740428841E4    -5.401928465416499E-3   -1.016936307329032
 6.732472706425769E4    -7.481482227431817E-3   -1.031273257074157
 6.813193018254118E4    -7.627040367534066E-3   -1.045231760248297
 6.894881142211189E4    -7.077416829960044E-3   -1.060330463498008
 6.977548682071763E4    -8.620850002205841E-3   -1.071550812186411
 7.061207380736334E4    -5.664781108053850E-3   -1.082276803783807
 7.145869121899214E4    -7.159431071080837E-3   -1.099012697839167
 7.231545931736665E4    -5.926323278970451E-3   -1.109950292918912
 7.318249980615120E4    -6.476103162310364E-3   -1.122261801940303
 7.405993584820042E4    -7.566252678815733E-3   -1.143611287944797
 7.494789208305413E4    -5.940068522971466E-3   -1.153898772668238
 7.584649464464303E4    -5.953700576529971E-3   -1.164578710588447
 7.675587117920503E4    -5.475865729055032E-3   -1.186577326635213
 7.767615086341785E4    -6.131323909961234E-3   -1.206862804336925
 7.860746442274896E4    -5.726649202200399E-3   -1.217028608709610
 7.954994415002420E4    -5.196551613219409E-3   -1.236006277690561
 8.050372392422051E4    -6.171268399496221E-3   -1.245529778726595
 8.146893922948316E4    -6.397470049191547E-3   -1.262277492497982
 8.244572717437183E4    -4.480205646469665E-3   -1.278893646715527
 8.343422651133584E4    -6.197873177417908E-3   -1.297732711364300
 8.443457765642447E4    -5.519280078852218E-3   -1.319435661845594
 8.544692270923343E4    -3.913676460946721E-3   -1.329241799567450
 8.647140547308912E4    -6.256595445238483E-3   -1.350188465528398
 8.750817147547653E4    -4.990524404390440E-3   -1.363286647610265
 8.855736798871095E4    -6.331891207365568E-3   -1.373957438686632
 8.961914405085878E4    -4.955312364831300E-3   -1.386771201887900
 9.069365048690724E4    -5.393087185515516E-3   -1.420116896985260
 9.178103993018946E4    -5.603543202073132E-3   -1.432364389159303
 9.288146684406673E4    -5.696927654338515E-3   -1.452133196323103
 9.399508754386869E4    -5.148221743206836E-3   -1.467552985707711
 9.512206021909874E4    -4.249954636509998E-3   -1.481037438850470
 9.626254495590441E4    -5.593089350436243E-3   -1.503233276247933
 9.741670375981825E4    -6.627506993431275E-3   -1.524027758195315
 9.858470057876965E4    -5.099956061391115E-3   -1.541787514972110
 9.976670132637402E4    -5.885193546141935E-3   -1.561488742564875
 1.009628739055015E5    -5.961720293893830E-3   -1.574898646588622
 1.021733882321262E5    -3.921149530666147E-3   -1.599136309160879
 1.033984162594637E5    -5.092521720480360E-3   -1.610413511492089
 1.046381320023962E5    -6.555426130514727E-3   -1.640300945647604
 1.058927115621927E5    -5.882634653711392E-3   -1.658197685202367
 1.071623331515222E5    -5.302997766787947E-3   -1.684881111164436
 1.084471771197698E5    -5.988029749008031E-3   -1.707124397127344
 1.097474259786559E5    -5.903445516252402E-3   -1.723569122220292
 1.110632644281605E5    -4.598608546558921E-3   -1.743678395743101
 1.123948793827609E5    -4.999553517433242E-3   -1.776106719578295
 1.137424599979820E5    -5.962298653494381E-3   -1.782281304511957
 1.151061976972671E5    -5.562532882835968E-3   -1.810289454068354
 1.164862861991679E5    -6.245729231736376E-3   -1.830906783453043
 1.178829215448629E5    -5.451432341698318E-3   -1.860842183550410
 1.192963021260060E5    -5.322095955114649E-3   -1.879481381076374
 1.207266287129061E5    -5.541388485514948E-3   -1.893718777750681
 1.221741044830477E5    -5.595733129489890E-3   -1.921393442711822
 1.236389350499517E5    -6.179319676435108E-3   -1.951195954550862
 1.251213284923835E5    -6.760565782367611E-3   -1.964979701058758
 1.266214953839095E5    -6.640991032380188E-3   -1.991369845543066
 1.281396488228093E5    -6.608120929500543E-3   -2.015601925996116
 1.296760044623472E5    -6.145095462743244E-3   -2.041018183629648
 1.312307805414042E5    -6.447866666424636E-3   -2.069513546405506
 1.328041979154798E5    -7.557764889294694E-3   -2.088877023391881
 1.343964800880637E5    -6.806097853819561E-3   -2.119419987910578
 1.360078532423858E5    -6.161799072404347E-3   -2.143548238620161
 1.376385462735435E5    -6.106719976504811E-3   -2.167601161802447
 1.392887908210181E5    -6.804769642890996E-3   -2.197983378974465
 1.409588213015776E5    -7.325221666468705E-3   -2.225661858773502
 1.426488749425764E5    -6.893007090221867E-3   -2.253802149721873
 1.443591918156531E5    -8.047339654640190E-3   -2.277491274573933
 1.460900148708322E5    -7.121121382125586E-3   -2.300665860404490
 1.478415899710367E5    -8.108079226005691E-3   -2.329718799721470
 1.496141659270102E5    -6.859466413366307E-3   -2.359984885571646
 1.514079945326635E5    -6.693957607001462E-3   -2.381995673074141
 1.532233306008390E5    -8.165142119620718E-3   -2.422402591891190
 1.550604319995083E5    -7.426982414252112E-3   -2.448494976399081
 1.569195596884022E5    -7.549946611113148E-3   -2.469027326507149
 1.588009777560794E5    -6.717950691279424E-3   -2.503275963703909
 1.607049534574414E5    -7.725934923918137E-3   -2.538958535922925
 1.626317572516939E5    -8.113302329355311E-3   -2.564707492378685
 1.645816628407681E5    -8.861613395454578E-3   -2.593472378819139
 1.665549472081974E5    -9.410927967439581E-3   -2.623368771058550
 1.685518906584647E5    -8.238959998867248E-3   -2.659066630649977
 1.705727768568184E5    -8.822736231670458E-3   -2.690192702857067
 1.726178928695674E5    -9.183565716259938E-3   -2.728236288868419
 1.746875292048600E5    -8.457877469733872E-3   -2.754105321395206
 1.767819798539475E5    -8.303240773760524E-3   -2.793718460964154
 1.789015423329493E5    -9.188783541075560E-3   -2.824002826640243
 1.810465177251116E5    -8.430070881832662E-3   -2.858239398561476
 1.832172107235785E5    -9.997699057952072E-3   -2.890037220018763
 1.854139296746723E5    -9.394744047721799E-3   -2.928603553510013
 1.876369866216944E5    -1.023906487659557E-2   -2.959545551500836
 1.898866973492520E5    -8.687009443321373E-3   -2.986519748878695
 1.921633814281128E5    -9.513756967849576E-3   -3.034007366259814
 1.944673622606028E5    -9.797355552821036E-3   -3.066431843797382
 1.967989671265431E5    -1.027335184071775E-2   -3.101430141332189
 1.991585272297410E5    -9.392975367308846E-3   -3.148038329423521
 2.015463777450377E5    -1.000625602770848E-2   -3.180760155675059
 2.039628578659185E5    -9.646162357284781E-3   -3.217710717013205
 2.064083108526977E5    -1.032312726102563E-2   -3.258776527741838
 2.088830840812749E5    -1.092046368801376E-2   -3.292360420850675
 2.113875290924837E5    -1.143436438743133E-2   -3.331470496122667
 2.139220016420246E5    -1.061133099719803E-2   -3.380432175317409
 2.164868617510018E5    -1.168818372870188E-2   -3.414881246226684
 2.190824737570634E5    -1.237758312224694E-2   -3.456134227650034
 2.217092063661558E5    -1.161443719778393E-2   -3.493393465476557
 2.243674327048992E5    -1.065768466019869E-2   -3.536580467131946
 2.270575303735873E5    -1.224968517610936E-2   -3.580385186855899
 2.297798814998292E5    -1.235160402811581E-2   -3.633880696655758
 2.325348727928268E5    -1.190542129073361E-2   -3.671802889954190
 2.353228955983091E5    -1.278749579309075E-2   -3.713030420699445
 2.381443459541215E5    -1.109984128146598E-2   -3.756212371401641
 2.409996246464848E5    -1.326016643486095E-2   -3.806503022592328
 2.438891372669239E5    -1.292479007767335E-2   -3.846505066388194
 2.468132942698835E5    -1.255032131616244E-2   -3.890143900519098
 2.497725110310345E5    -1.379214071605007E-2   -3.944105126853062
 2.527672079062750E5    -1.359346738474153E-2   -3.989604989762045
 2.557978102914435E5    -1.391971653054288E-2   -4.036966649462940
 2.588647486827455E5    -1.477839122314856E-2   -4.086211290893499
 2.619684587379076E5    -1.402885025771213E-2   -4.136158416876739
 2.651093813380591E5    -1.549046896152055E-2   -4.186337847064115
 2.682879626503607E5    -1.545425903420499E-2   -4.233283254089116
 2.715046541913839E5    -1.559174467076551E-2   -4.281163684287537
 2.747599128912459E5    -1.535145078336520E-2   -4.330289818986054
 2.780542011585185E5    -1.599294872091185E-2   -4.383894208714620
 2.813879869459116E5    -1.686462620705760E-2   -4.436440507552181
 2.847617438167484E5    -1.570103212937105E-2   -4.487453083945266
 2.881759510122315E5    -1.686876622747307E-2   -4.545287741213055
 2.916310935195204E5    -1.759649281065098E-2   -4.594175427161508
 2.951276621406259E5    -1.650375108325285E-2   -4.649204638426866
 2.986661535621248E5    -1.750690394091971E-2   -4.709505336016549
 3.022470704257161E5    -1.783963205095172E-2   -4.763584762891118
 3.058709213996202E5    -1.764934198788528E-2   -4.817829465181205
