#  HZ   S   DB   R     50.00 
! Rohde & Schwarz Vector Network Analyzer 
! Rohde-Schwarz,ZNB8-4Port,1334333044101560,3.32
! Created: UTC 3/21/2023, 5:28:15 PM
! freq[Hz]                db:S11                  ang:S11
 1.000000000000000E4     4.112783485311267E-2   -1.799064037846452E2
 1.011989697596740E4     3.488959255179244E-2   -1.798586810117654E2
 1.024123148041938E4     3.424343817457519E-2   -1.798865315748727E2
 1.036402074888782E4     3.667167573470806E-2   -1.798637987042252E2
 1.048828222355332E4     3.110846597270018E-2   -1.798293132706551E2
 1.061403355572299E4     3.234274033769607E-2   -1.798475647588869E2
 1.074129260833773E4     3.303386363354741E-2   -1.798709921437341E2
 1.087007745850980E4     2.717527776148282E-2   -1.798801606452429E2
 1.100040640009047E4     3.217804621660845E-2   -1.798610762659233E2
 1.113229794626877E4     3.206670622763266E-2   -1.798887337363968E2
 1.126577083220134E4     3.275653911462022E-2   -1.798848421621585E2
 1.140084401767360E4     2.687824776499474E-2   -1.798798471766626E2
 1.153753668979311E4     2.848640045627335E-2   -1.798977993831681E2
 1.167586826571499E4     2.721646822649951E-2   -1.798796143515605E2
 1.181585839540028E4     2.936636540787142E-2   -1.799091830782876E2
 1.195752696440703E4     2.677339398470925E-2   -1.799123933766836E2
 1.210089409671510E4     2.472263475799901E-2   -1.799332647422598E2
 1.224598015758489E4     2.482162122607206E-2   -1.799293332159607E2
 1.239280575645001E4     2.111151917068141E-2   -1.799382465645635E2
 1.254139174984498E4     2.279622957415839E-2   -1.799225877688289E2
 1.269175924436784E4     2.206808257833113E-2   -1.799442566337289E2
 1.284392959967844E4     2.318287675663077E-2   -1.799610965349914E2
 1.299792443153239E4     2.301945847112886E-2   -1.799422648132896E2
 1.315376561485171E4     2.173281029695924E-2   -1.799372207544077E2
 1.331147528683218E4     2.196181199059664E-2   -1.799464124628589E2
 1.347107585008777E4     2.072676198288534E-2   -1.799559249298757E2
 1.363258997583304E4     2.233835281076171E-2   -1.799519934577264E2
 1.379604060710362E4     1.907037716838124E-2   -1.799499715220469E2
 1.396145096201513E4     2.031239675320434E-2   -1.799774137998982E2
 1.412884453706141E4     1.663444435367602E-2   -1.799576446562594E2
 1.429824511045209E4     1.873066723113706E-2   -1.799657952307337E2
 1.446967674549047E4     1.799304794229226E-2   -1.799715411220295E2
 1.464316379399148E4     1.684177554830689E-2   -1.799736451284676E2
 1.481873089974093E4     1.493582932697182E-2   -1.799908408293797E2
 1.499640300199629E4     1.682304524046823E-2   -1.799661298793828E2
 1.517620533902906E4     1.655118052933453E-2   -1.799783011935155E2
 1.535816345171005E4     1.616542948760604E-2   -1.799930875148291E2
 1.554230318713732E4     1.479315771692536E-2   -1.799817655988845E2
 1.572865070230794E4     1.404773127304544E-2   -1.799897533496407E2
 1.591723246783336E4     1.425649376184456E-2   -1.799888530102665E2
 1.610807527169965E4     1.289078010326910E-2    1.799932327855396E2
 1.630120622307285E4     1.389168960554737E-2   -1.799938040722199E2
 1.649665275614959E4     1.294091968365908E-2   -1.799891996678927E2
 1.669444263405424E4     9.982140085934533E-3    1.799991625992363E2
 1.689460395278264E4     1.259530227374115E-2    1.799756727341647E2
 1.709716514519318E4     1.166985258166172E-2   -1.799998920923192E2
 1.730215498504557E4     1.297331215536522E-2    1.799904808237168E2
 1.750960259108815E4     1.189122565112415E-2    1.799849344310177E2
 1.771953743119439E4     1.040704631801312E-2    1.799899767113675E2
 1.793198932654852E4     1.075190698667676E-2    1.799882771462101E2
 1.814698845588179E4     1.094331910205359E-2    1.799764154801697E2
 1.836456535975930E4     8.647007211757665E-3    1.799845931478087E2
 1.858475094491838E4     7.153478756505981E-3    1.799893068100090E2
 1.880757648865867E4     9.231876134704033E-3    1.799774508039024E2
 1.903307364328520E4     8.942015394619987E-3    1.799836332135738E2
 1.926127444060467E4     9.128455923324653E-3    1.799818136932162E2
 1.949221129647533E4     7.148054223592367E-3    1.799781234066724E2
 1.972591701541182E4     5.109759388928271E-3    1.799633908648882E2
 1.996242479524495E4     6.294967575561837E-3    1.799702403292827E2
 2.020176823183760E4     8.364105698333938E-3    1.799717284099465E2
 2.044398132385675E4     6.656868911795827E-3    1.799767957199491E2
 2.068909847760314E4     8.662544710311793E-3    1.799622417445534E2
 2.093715451189877E4     5.287157000493144E-3    1.799738642220837E2
 2.118818466303265E4     7.488711605469771E-3    1.799770570382048E2
 2.144222458976629E4     4.367601485400655E-3    1.799688596571460E2
 2.169931037839892E4     5.213195690431417E-3    1.799588639319209E2
 2.195947854789372E4     7.012460185002480E-3    1.799712843719678E2
 2.222276605506506E4     5.110434769381336E-3    1.799736457019763E2
 2.248921029982833E4     2.658364682012636E-3    1.799648400768789E2
 2.275884913051276E4     4.199933441174473E-3    1.799601752603840E2
 2.303172084923743E4     2.329525567603384E-3    1.799628558918172E2
 2.330786421735231E4     1.904767614935740E-3    1.799636765467031E2
 2.358731846094418E4     2.174456865814858E-3    1.799695253164567E2
 2.387012327640890E4     3.713088027725754E-3    1.799721425913636E2
 2.415631883608994E4     1.330749398122502E-3    1.799745526981352E2
 2.444594579398503E4     3.874320343859634E-5    1.799658694458417E2
 2.473904529152120E4     3.138876121108096E-3    1.799546937835671E2
 2.503565896339859E4     2.474893945526288E-3    1.799598768851427E2
 2.533582894350484E4     1.894610671815925E-3    1.799675381115548E2
 2.563959787090014E4     2.032945796678620E-3    1.799644954044608E2
 2.594700889587424E4     4.439756418093516E-4    1.799718196173717E2
 2.625810568607569E4     2.247377210423135E-3    1.799633469530841E2
 2.657293243271491E4    -3.020650083522863E-4    1.799764310556810E2
 2.689153385684176E4     2.090187312701773E-3    1.799631180425184E2
 2.721395521569778E4    -3.251290425114715E-5    1.799667682172948E2
 2.754024230914521E4     5.000778639669586E-4    1.799647063961966E2
 2.787044148617274E4     1.088921441494412E-3    1.799617484568133E2
 2.820459965147958E4    -1.465361264303761E-3    1.799584548920469E2
 2.854276427213793E4    -4.459636492067771E-4    1.799637272130429E2
 2.888498338433582E4    -4.533656370654019E-4    1.799588008327474E2
 2.923130560020086E4     9.472020603302699E-4    1.799533460320318E2
 2.958178011470515E4    -1.197654303293622E-3    1.799654569635353E2
 2.993645671265371E4     9.581029631259762E-4    1.799629314922134E2
 3.029538577575626E4    -1.484409268933529E-3    1.799645158769832E2
 3.065861828978415E4    -2.327773145412915E-3    1.799658656845416E2
 3.102620585181253E4    -9.286800588745271E-4    1.799568263832218E2
 3.139820067754989E4    -1.986667883240217E-3    1.799647815356657E2
 3.177465560875546E4    -1.117059120686289E-3    1.799632036105169E2
 3.215562412074499E4    -2.223018425665663E-3    1.799612710753443E2
 3.254116032998715E4    -1.302683451145678E-3    1.799675580840213E2
 3.293131900179065E4    -2.086424501850842E-3    1.799708640954237E2
 3.332615555808388E4    -1.594146982319260E-3    1.799701159607312E2
 3.372572608528721E4    -1.598823374132995E-3    1.799636453404631E2
 3.413008734228021E4    -1.775738227225033E-3    1.799618151737029E2
 3.453929676846447E4    -1.624896579011073E-3    1.799554188970317E2
 3.495341249192241E4    -1.818941442657184E-3    1.799695897114027E2
 3.537249333767466E4    -1.208580724848439E-3    1.799645655740223E2
 3.579659883603599E4    -2.187897428953497E-3    1.799589450298783E2
 3.622578923107187E4    -3.572490373316626E-3    1.799729185244316E2
 3.666012548915565E4    -3.145308119267940E-3    1.799708838579814E2
 3.709966930762908E4    -3.587863601925735E-3    1.799689581616455E2
 3.754448312356659E4    -2.175990593662792E-3    1.799681690922362E2
 3.799463012264405E4    -2.939296214053894E-3    1.799669256465538E2
 3.845017424811453E4    -2.835860976617661E-3    1.799644481793365E2
 3.891118020989129E4    -1.832124803862248E-3    1.799744086393573E2
 3.937771349374013E4    -3.105722029218534E-3    1.799583068807418E2
 3.984984037058112E4    -1.984523973968708E-3    1.799661814038534E2
 4.032762790590266E4    -3.148998777753344E-3    1.799667337303435E2
 4.081114396928827E4    -2.809214337212412E-3    1.799665675813383E2
 4.130045724405704E4    -3.548963739911864E-3    1.799611319740346E2
 4.179563723702028E4    -2.710482470759880E-3    1.799656915492495E2
 4.229675428835518E4    -3.113391836589612E-3    1.799664550274214E2
 4.280387958159616E4    -2.502302564297803E-3    1.799698699678120E2
 4.331708515374676E4    -3.289804669038447E-3    1.799675927448652E2
 4.383644390551231E4    -2.186796533066296E-3    1.799719631019901E2
 4.436202961165585E4    -2.649302862185174E-3    1.799834305004270E2
 4.489391693147722E4    -3.380298007732636E-3    1.799660966038860E2
 4.543218141941869E4    -2.794584050298114E-3    1.799758560987908E2
 4.597689953579773E4    -3.147947806536216E-3    1.799643696650103E2
 4.652814865766763E4    -3.930131830127862E-3    1.799705070732050E2
 4.708600708980911E4    -3.907702441210145E-3    1.799654710172395E2
 4.765055407585386E4    -3.203791996316235E-3    1.799619437493074E2
 4.822186980954044E4    -3.971855080265890E-3    1.799771212794031E2
 4.880003544610618E4    -2.845223825387998E-3    1.799713217311451E2
 4.938513311381507E4    -2.463342863694487E-3    1.799608160443506E2
 4.997724592562445E4    -3.233548775520496E-3    1.799695121789157E2
 5.057645799099057E4    -3.043624812453193E-3    1.799635473601235E2
 5.118285442781665E4    -3.569045140984864E-3    1.799712083927710E2
 5.179652137454412E4    -2.621328576710521E-3    1.799718472581762E2
 5.241754600238797E4    -3.384174345707461E-3    1.799644257277844E2
 5.304601652771980E4    -2.822684889163902E-3    1.799608762403568E2
 5.368202222459870E4    -1.976645955655090E-3    1.799646773654446E2
 5.432565343745310E4    -3.665033738309952E-3    1.799707717758285E2
 5.497700159391344E4    -1.796518739389060E-3    1.799748859877402E2
 5.563615921779982E4    -1.511620628061200E-3    1.799613061922560E2
 5.630321994226530E4    -1.883242656126059E-3    1.799648610737337E2
 5.697827852309579E4    -2.708065852967981E-3    1.799591797059313E2
 5.766143085217051E4    -2.588351911539112E-3    1.799741928053477E2
 5.835277397108323E4    -2.683652476911984E-3    1.799678555587040E2
 5.905240608492742E4    -3.279161129135987E-3    1.799550002126085E2
 5.976042657624557E4    -1.068213711934007E-3    1.799660522608305E2
 6.047693601914679E4    -2.536285353873409E-3    1.799673666023141E2
 6.120203619359374E4    -2.087095752519766E-3    1.799614701292810E2
 6.193583009985965E4    -3.560977350554671E-3    1.799578565947761E2
 6.267842197316001E4    -3.030267956998802E-3    1.799664942269335E2
 6.342991729845891E4    -4.064509962236959E-4    1.799612361482697E2
 6.419042282545364E4    -4.662898738188887E-3    1.799632458919993E2
 6.496004658373768E4    -1.548394431952793E-3    1.799596091034375E2
 6.573889789814668E4    -1.174181628642761E-3    1.799532652722477E2
 6.652708740428841E4    -8.985319401415772E-4    1.799497525579023E2
 6.732472706425769E4    -1.988099045359780E-3    1.799514029543358E2
 6.813193018254118E4    -1.993449962675613E-3    1.799496178973404E2
 6.894881142211189E4     6.470759258464488E-5    1.799552730663085E2
 6.977548682071763E4    -2.055455090911232E-3    1.799583319323285E2
 7.061207380736334E4     1.931319585262188E-4    1.799678039295894E2
 7.145869121899214E4     3.800800387132540E-4    1.799494326443292E2
 7.231545931736665E4    -8.019058117394128E-4    1.799575511973740E2
 7.318249980615120E4    -7.387226949747913E-4    1.799502427799519E2
 7.405993584820042E4    -2.304064738649696E-3    1.799469379549205E2
 7.494789208305413E4    -5.321355016862192E-4    1.799549256433556E2
 7.584649464464303E4    -2.095056096762105E-3    1.799576345215264E2
 7.675587117920503E4    -8.522718294560917E-4    1.799445021675806E2
 7.767615086341785E4    -1.387661743166252E-3    1.799379830563987E2
 7.860746442274896E4    -6.300939434509812E-4    1.799440238702921E2
 7.954994415002420E4    -1.775503420054842E-4    1.799495270293000E2
 8.050372392422051E4     1.063782658198661E-4    1.799468582581778E2
 8.146893922948316E4    -2.771332990867765E-4    1.799444809609371E2
 8.244572717437183E4     7.203458843467595E-5    1.799379859368432E2
 8.343422651133584E4     3.489230938255078E-4    1.799402328261843E2
 8.443457765642447E4    -1.991515058470352E-4    1.799410802769378E2
 8.544692270923343E4     4.767303260620483E-4    1.799391134556981E2
 8.647140547308912E4     6.657372668700598E-4    1.799359414017792E2
 8.750817147547653E4     1.043342893671350E-3    1.799309573980446E2
 8.855736798871095E4     1.593852479180093E-4    1.799438913529583E2
 8.961914405085878E4     7.485457233864084E-4    1.799342478951270E2
 9.069365048690724E4     9.038326916278747E-4    1.799382925852485E2
 9.178103993018946E4     8.085905228789277E-4    1.799431523327376E2
 9.288146684406673E4     2.672789592120373E-5    1.799350314288804E2
 9.399508754386869E4     9.731637155260906E-4    1.799283386962173E2
 9.512206021909874E4     5.347667087780794E-4    1.799260175720979E2
 9.626254495590441E4     1.269685940435334E-3    1.799371550428424E2
 9.741670375981825E4     1.583954334862525E-4    1.799341799677621E2
 9.858470057876965E4     5.533882747763224E-4    1.799245144929896E2
 9.976670132637402E4     8.390830254206855E-4    1.799105340492856E2
 1.009628739055015E5     1.131756063440044E-3    1.799261622661512E2
 1.021733882321262E5     9.169177938757340E-4    1.799212489134524E2
 1.033984162594637E5     1.456509174063802E-3    1.799206077859877E2
 1.046381320023962E5     1.188015001856170E-3    1.799251964932246E2
 1.058927115621927E5     3.438039942691643E-3    1.799129479721818E2
 1.071623331515222E5     1.044322699369478E-3    1.799158662584911E2
 1.084471771197698E5     1.562746407073805E-3    1.799167762010779E2
 1.097474259786559E5     1.232781459499494E-4    1.799083157703128E2
 1.110632644281605E5    -1.373221284358389E-4    1.799063276978534E2
 1.123948793827609E5     1.901481163406529E-3    1.799040888067743E2
 1.137424599979820E5    -6.558576519312841E-4    1.799028546039481E2
 1.151061976972671E5     1.233209130169341E-3    1.799088279171640E2
 1.164862861991679E5     1.349337074516666E-3    1.798985530617027E2
 1.178829215448629E5     1.355778630644318E-3    1.799070436901712E2
 1.192963021260060E5     1.803666986964557E-3    1.798971051125995E2
 1.207266287129061E5     1.026030105849063E-3    1.798908279493409E2
 1.221741044830477E5     1.667637591940675E-3    1.799001031693381E2
 1.236389350499517E5     2.255080951885811E-3    1.798923946131337E2
 1.251213284923835E5     4.618201033334559E-4    1.798977167935055E2
 1.266214953839095E5     4.283363830090349E-5    1.798896067878786E2
 1.281396488228093E5     1.180918396717004E-3    1.798864176130704E2
 1.296760044623472E5     1.447650569487539E-3    1.798889050475337E2
 1.312307805414042E5     8.355440076286967E-4    1.798856806869633E2
 1.328041979154798E5     2.831458495189797E-3    1.798749870453464E2
 1.343964800880637E5     1.568772365123928E-3    1.798868226162031E2
 1.360078532423858E5     1.511259065858330E-4    1.798773923062289E2
 1.376385462735435E5     4.181179447869650E-5    1.798786490996480E2
 1.392887908210181E5     7.071726716481035E-4    1.798797509890786E2
 1.409588213015776E5     4.993366567078246E-4    1.798703025718366E2
 1.426488749425764E5     7.889749882587550E-4    1.798659664199565E2
 1.443591918156531E5     8.717378691630432E-4    1.798688431333629E2
 1.460900148708322E5     1.605493525348463E-3    1.798664997936279E2
 1.478415899710367E5     8.603362558070701E-4    1.798689355574678E2
 1.496141659270102E5     1.735507371406685E-3    1.798645924532470E2
 1.514079945326635E5     1.705229342904551E-3    1.798667736783524E2
 1.532233306008390E5     9.669906611338758E-4    1.798677968992498E2
 1.550604319995083E5     2.086210758222565E-3    1.798552998032675E2
 1.569195596884022E5     2.448671899185777E-3    1.798460166738395E2
 1.588009777560794E5     1.051605003487433E-3    1.798554260309918E2
 1.607049534574414E5     1.164352409385906E-3    1.798571025322686E2
 1.626317572516939E5     2.499647237759708E-3    1.798461824633399E2
 1.645816628407681E5     1.502075313585902E-3    1.798439239292488E2
 1.665549472081974E5     2.504188734889363E-3    1.798419822007585E2
 1.685518906584647E5     1.411194420826600E-3    1.798362277627797E2
 1.705727768568184E5     1.490671289869681E-3    1.798421097710169E2
 1.726178928695674E5     1.942709837419160E-3    1.798294918431069E2
 1.746875292048600E5     1.269880522391298E-3    1.798354128579341E2
 1.767819798539475E5     2.784243805185378E-3    1.798311239601328E2
 1.789015423329493E5     6.157464161929073E-4    1.798237711015830E2
 1.810465177251116E5     1.671738502980746E-3    1.798268213344009E2
 1.832172107235785E5     1.808612540149030E-3    1.798278644470383E2
 1.854139296746723E5     1.300604112663308E-3    1.798194582675006E2
 1.876369866216944E5     1.990572793577428E-3    1.798183781599943E2
 1.898866973492520E5     2.644799527362345E-3    1.798163076512278E2
 1.921633814281128E5     9.966445691512132E-4    1.798208076860895E2
 1.944673622606028E5     1.712486422330647E-3    1.798075768133523E2
 1.967989671265431E5     1.018315160616224E-3    1.798095643189623E2
 1.991585272297410E5     1.259643268399162E-3    1.798114380802837E2
 2.015463777450377E5     2.310352052355626E-3    1.798064895998655E2
 2.039628578659185E5     2.083994146767383E-3    1.798088847907288E2
 2.064083108526977E5     2.841403433020526E-3    1.798026404134593E2
 2.088830840812749E5     2.065213440841232E-3    1.797876975107182E2
 2.113875290924837E5     9.491519305129493E-4    1.798048187527243E2
 2.139220016420246E5     2.291770063008771E-3    1.797975274566672E2
 2.164868617510018E5     2.179624688772262E-3    1.797845863751066E2
 2.190824737570634E5     1.681103417046929E-3    1.797811072446543E2
 2.217092063661558E5     9.201672823382064E-4    1.797843438734126E2
 2.243674327048992E5     9.876408792525552E-4    1.797811574218521E2
 2.270575303735873E5     2.319536434872224E-3    1.797781231860262E2
 2.297798814998292E5     1.368730855522244E-3    1.797789831423194E2
 2.325348727928268E5     1.609816456678650E-3    1.797715245489406E2
 2.353228955983091E5     1.260801192572035E-3    1.797772272187255E2
 2.381443459541215E5     1.804669303092361E-3    1.797673768178950E2
 2.409996246464848E5     5.263775480967972E-4    1.797651242871324E2
 2.438891372669239E5     2.787544038720133E-3    1.797642727658588E2
 2.468132942698835E5     2.640059638513796E-3    1.797559049150433E2
 2.497725110310345E5     2.613118175856972E-3    1.797530323964159E2
 2.527672079062750E5     1.876568249830694E-3    1.797507882212979E2
 2.557978102914435E5     2.696503069036762E-3    1.797450793144638E2
 2.588647486827455E5     2.040615991396760E-3    1.797392113440404E2
 2.619684587379076E5     1.931072708458561E-3    1.797341946444978E2
 2.651093813380591E5     1.316726193452687E-3    1.797431535664143E2
 2.682879626503607E5     1.331483975007936E-3    1.797328525185114E2
 2.715046541913839E5     1.617694471063012E-3    1.797344629152420E2
 2.747599128912459E5     9.165806901875409E-4    1.797225362666371E2
 2.780542011585185E5     1.785031889672433E-3    1.797241284565141E2
 2.813879869459116E5     2.135440971770392E-3    1.797207669082267E2
 2.847617438167484E5     2.105359048760183E-3    1.797184027120185E2
 2.881759510122315E5     2.885414830587405E-3    1.797108621820740E2
 2.916310935195204E5     2.205047342542685E-3    1.797067537102372E2
 2.951276621406259E5     1.453292917221900E-3    1.797117897695009E2
 2.986661535621248E5     1.685782832990825E-3    1.796960428684767E2
