#  HZ   S   DB   R     50.00 
! Rohde & Schwarz Vector Network Analyzer 
! Rohde-Schwarz,ZNB8-4Port,1334333044101560,3.32
! Created: UTC 3/21/2023, 5:21:28 PM
! freq[Hz]                db:S11                  ang:S11                 db:S41                  ang:S41                 db:S14                  ang:S14                 db:S44                  ang:S44
 1.000000000000000E4    -9.525440892549074      -1.793535794372178E2    -3.500298571940618       7.188637281130282E-2   -3.488673036000777       5.423601180998455E-2   -9.541397461285644      -1.790587242114000E2
 1.011989697596740E4    -9.518516626802162      -1.793323677661287E2    -3.504455694732253       4.286407797245306E-2   -3.496069443027499       3.942851665582567E-2   -9.519749711480586      -1.791658566484946E2
 1.024123148041938E4    -9.520343199625687      -1.793712631549551E2    -3.505730615352432       3.527437825151170E-3   -3.501176740804238       6.128851305552730E-2   -9.540221181723075      -1.792368876066747E2
 1.036402074888782E4    -9.507746545419923      -1.794496895977583E2    -3.508681091544046      -3.226144829736136E-3   -3.495625012435574       3.260280726010185E-2   -9.523366301704504      -1.791700181364958E2
 1.048828222355332E4    -9.514918878992404      -1.794099925753128E2    -3.510513022272827       3.066989650781661E-2   -3.498791187852322       2.761083620563817E-2   -9.527733035185021      -1.792367996509471E2
 1.061403355572299E4    -9.516166366099174      -1.793958971476733E2    -3.509267828323204       3.240285389987767E-2   -3.507945440682734       7.985257320452115E-2   -9.534779036096214      -1.793195598748896E2
 1.074129260833773E4    -9.513154901090159      -1.794247656711340E2    -3.508904032653768       7.572658846827030E-3   -3.505707274373424       7.289543829626006E-2   -9.530273090068723      -1.792478963416251E2
 1.087007745850980E4    -9.518185249141485      -1.794997290610450E2    -3.514501970775737       1.825731092543107E-2   -3.505066849001063       4.465911616257650E-2   -9.515760143502746      -1.792970776067779E2
 1.100040640009047E4    -9.511844015422223      -1.794383815630667E2    -3.510510421234254       2.082008891678651E-2   -3.504879220182628       6.682554110198877E-2   -9.537123214000259      -1.793364976568959E2
 1.113229794626877E4    -9.527920897448878      -1.794255967638362E2    -3.511433747274876       2.899911892421413E-2   -3.505618249946705       4.968466834401754E-2   -9.521596050283359      -1.793418215243340E2
 1.126577083220134E4    -9.513992545485117      -1.794674495080184E2    -3.508910565584077       7.239217368486178E-3   -3.500783838863017       5.559707489240250E-2   -9.527830317850549      -1.793280932927242E2
 1.140084401767360E4    -9.522060504095869      -1.794874237505558E2    -3.513695300513612       2.183451325349746E-2   -3.507708687674476       5.100004573296400E-2   -9.527501845526436      -1.793581813964942E2
 1.153753668979311E4    -9.510994383976335      -1.794889566282230E2    -3.514283822754163      -3.782348786892848E-3   -3.513725749067353       4.848677480489979E-2   -9.513559257286555      -1.794127867217632E2
 1.167586826571499E4    -9.512062857449614      -1.794732205292107E2    -3.517355315971634      -3.338484822350615E-2   -3.514906936815418       2.763581960744442E-2   -9.517626912933938      -1.794150621925239E2
 1.181585839540028E4    -9.516144705185269      -1.795079842219913E2    -3.516684431337942       1.080942458628096E-2   -3.509909315822756       3.479030406426695E-2   -9.524244810443960      -1.793697602029073E2
 1.195752696440703E4    -9.510305147635052      -1.795325806052553E2    -3.522396630711614      -6.744859136818811E-3   -3.510814023814197       6.588166091401776E-2   -9.528735717115392      -1.794400733905938E2
 1.210089409671510E4    -9.507980469008311      -1.795785345271948E2    -3.521107010537979       5.254650186248635E-3   -3.513461471582994       2.460139612352337E-2   -9.521186277260030      -1.794610490576883E2
 1.224598015758489E4    -9.512391174946451      -1.795563415401919E2    -3.518691282988329       4.136913065444213E-3   -3.512043534137433       2.660347109768803E-2   -9.524363701881169      -1.794055483850164E2
 1.239280575645001E4    -9.512319898797646      -1.795790889067354E2    -3.521626330235195       9.282554767645845E-3   -3.515701393271547       3.289717851218113E-2   -9.515243476434897      -1.794652476934793E2
 1.254139174984498E4    -9.516417778583616      -1.795546153801209E2    -3.520932751527313      -9.898952704890933E-3   -3.514995784007643       2.301430489301554E-2   -9.518480408639030      -1.794638105056443E2
 1.269175924436784E4    -9.509066725807935      -1.796080577920557E2    -3.524769525200810       1.099339711742441E-2   -3.518751034126516       4.708127950758695E-2   -9.521425765936840      -1.795052041148529E2
 1.284392959967844E4    -9.512214079834967      -1.795837388553957E2    -3.520819454107584      -1.919954959333983E-2   -3.516350090264322       4.078573991725568E-2   -9.521470659092303      -1.794764423882620E2
 1.299792443153239E4    -9.511430850692072      -1.796109702282504E2    -3.524022580533430       2.792736644646278E-7   -3.517585592041435       5.394477048573491E-2   -9.517266212968098      -1.795508261536073E2
 1.315376561485171E4    -9.516389187448937      -1.795975340232458E2    -3.530649011524839      -1.910981630910941E-2   -3.523232697013117       5.085431364381561E-4   -9.512274797987574      -1.795202863441527E2
 1.331147528683218E4    -9.511718751470593      -1.796325438032362E2    -3.527748033783031      -1.211314220441407E-2   -3.517278986199154       2.263087359844944E-2   -9.517563206687772      -1.794910146143253E2
 1.347107585008777E4    -9.511139083445915      -1.796789573153336E2    -3.527030017005439       1.861078885635685E-3   -3.520550727118345       3.879289808576289E-2   -9.521427809079329      -1.795469075898905E2
 1.363258997583304E4    -9.507203994946657      -1.796756470481949E2    -3.530004945872343       6.486008377654198E-3   -3.520748974292017       4.372713281263858E-2   -9.518459628809721      -1.795325821698933E2
 1.379604060710362E4    -9.511754760701098      -1.796075367455009E2    -3.528863828994904      -1.015932899183336E-2   -3.522645968589095       8.760674470072656E-3   -9.508812309392251      -1.795163191744270E2
 1.396145096201513E4    -9.515641577691575      -1.796734557659552E2    -3.527770380427512       1.161472119316877E-2   -3.522351078389367       1.952635427396690E-2   -9.514345962712410      -1.796018847925829E2
 1.412884453706141E4    -9.511068098482985      -1.796953706468689E2    -3.529507507054492      -8.845455092144105E-3   -3.526208648766312       2.058817850731401E-2   -9.514082572300474      -1.795963665588787E2
 1.429824511045209E4    -9.516589468961730      -1.797128776256457E2    -3.526263944537921      -1.662514178199588E-3   -3.524153666743269       2.217932291718143E-2   -9.514353946269217      -1.796166006892887E2
 1.446967674549047E4    -9.511308560936442      -1.796255833845802E2    -3.526869416650308      -2.166578379992400E-2   -3.524187245483905       2.174082055123185E-2   -9.514298384411104      -1.796048430982951E2
 1.464316379399148E4    -9.515315075874629      -1.796645992138766E2    -3.528794673535622       3.939267618866668E-2   -3.523799463394850       1.748009538413142E-2   -9.509278153294371      -1.795890786948572E2
 1.481873089974093E4    -9.511548913328227      -1.797209679466885E2    -3.530673917462012       1.212790902305718E-2   -3.526634202429169       3.044025028639128E-2   -9.511939842184765      -1.796505444003568E2
 1.499640300199629E4    -9.503505391210101      -1.797612176392353E2    -3.534380560715813       7.024492618340436E-3   -3.527906836334284       3.062789546472268E-2   -9.509050352526174      -1.796665378073010E2
 1.517620533902906E4    -9.514555649820078      -1.796998683599608E2    -3.532490198073677       1.442575024288073E-2   -3.527706800138059       4.455160278916696E-2   -9.515069143589848      -1.796717558490333E2
 1.535816345171005E4    -9.506861087444884      -1.797377918981543E2    -3.529137446084540      -3.562864317973557E-3   -3.527244544885034       4.552509942510864E-2   -9.514313002980924      -1.796748271095086E2
 1.554230318713732E4    -9.508807375765953      -1.797642325526028E2    -3.529260115401224       7.263821808465841E-5   -3.528715814112965       5.972718019006403E-2   -9.517118460301162      -1.797170932201999E2
 1.572865070230794E4    -9.507378021579507      -1.797568502013854E2    -3.533274064274143       2.187702607895574E-2   -3.530777553935530       2.185020237160616E-2   -9.512740470444967      -1.796624468072725E2
 1.591723246783336E4    -9.506875327676385      -1.797647564194350E2    -3.536536358878402       7.531812190317305E-3   -3.530677203210930       3.767091906888864E-2   -9.512614563776129      -1.797168443695862E2
 1.610807527169965E4    -9.504056832490622      -1.797480772199914E2    -3.532642415064196      -1.006848342527316E-2   -3.527583565376084       2.262688454806923E-2   -9.517927952377752      -1.796681148997234E2
 1.630120622307285E4    -9.511729786483388      -1.797667469344786E2    -3.533563248110243       1.324514217527818E-2   -3.530700348450300       1.367348578898597E-2   -9.515475700372001      -1.797147537058218E2
 1.649665275614959E4    -9.504188401748122      -1.797458316178330E2    -3.532904119438645      -2.156231768568412E-2   -3.530435379592680       2.908014910196386E-2   -9.513458895324339      -1.796884133881791E2
 1.669444263405424E4    -9.510195154889837      -1.797932147642571E2    -3.536820146881072       2.086588947661234E-2   -3.529053223935129       6.466934479675580E-2   -9.516272966382498      -1.797383184887061E2
 1.689460395278264E4    -9.509813441295529      -1.797974988118773E2    -3.535056893242098       1.076033035666722E-2   -3.530119928791748       1.973037782843523E-2   -9.512377629468174      -1.797225876496382E2
 1.709716514519318E4    -9.508078240103542      -1.798222197404730E2    -3.538766959960675       2.298560899012241E-2   -3.532152172019647       3.917461346014812E-2   -9.513319264169757      -1.797758099233916E2
 1.730215498504557E4    -9.504146756131579      -1.797867230711503E2    -3.539534091379213       4.273163754239293E-3   -3.533038197066237       4.377612379828597E-2   -9.514362786606297      -1.797787262184406E2
 1.750960259108815E4    -9.514482522051685      -1.798134814894555E2    -3.536173982280544       2.651543347344162E-2   -3.529905731568946       3.940924060319192E-2   -9.515961088178235      -1.797199231666110E2
 1.771953743119439E4    -9.509470848359811      -1.798621991661163E2    -3.536734632761899       2.442060038886047E-2   -3.532479483200138       3.907444413798984E-2   -9.518352513451237      -1.797595120210481E2
 1.793198932654852E4    -9.509954631756187      -1.798151917163279E2    -3.539490933794512       1.151537614332990E-2   -3.534938604148459       1.536799395841466E-2   -9.513573589709830      -1.797558227779650E2
 1.814698845588179E4    -9.505840123840890      -1.798258864226484E2    -3.535339123024983       6.811488039373592E-3   -3.532740269221699       3.886531856018757E-2   -9.517641589076986      -1.798120729060540E2
 1.836456535975930E4    -9.515305214781950      -1.798399690283875E2    -3.537939247113209       2.426597244082437E-2   -3.531983887421936       4.579884758047021E-2   -9.514675840631224      -1.798059927063062E2
 1.858475094491838E4    -9.505128369546815      -1.798596695071760E2    -3.541748922891761       1.289699868890804E-2   -3.531103126154074       2.687746914240505E-2   -9.520316079169715      -1.797737128697375E2
 1.880757648865867E4    -9.513184628071091      -1.798797489195080E2    -3.539377867427446       3.231486302816179E-2   -3.530088903826949       5.273933262107425E-2   -9.520450785205909      -1.798099494869622E2
 1.903307364328520E4    -9.512908540790892      -1.798464864630917E2    -3.540227909607034       3.322628831966377E-2   -3.532534854219737       5.043023124525896E-2   -9.518239802216849      -1.798071473750524E2
 1.926127444060467E4    -9.509299524382278      -1.798802989784051E2    -3.538735738597232       1.739559276535879E-2   -3.536094119625781       4.346414498500315E-2   -9.518359457765277      -1.797968507967658E2
 1.949221129647533E4    -9.507595562944186      -1.798971184335819E2    -3.540307498008791       2.986477424771772E-2   -3.537335575873059       5.666321283794561E-2   -9.515971453026783      -1.798855571496681E2
 1.972591701541182E4    -9.511328193726065      -1.798745658659316E2    -3.539221590948400       2.496416589982986E-2   -3.532910546153464       4.909921677041083E-2   -9.523121554566213      -1.798448142884845E2
 1.996242479524495E4    -9.509196742613668      -1.799032185296959E2    -3.541340444240961       3.667403998421149E-2   -3.533892123170450       5.418943898472704E-2   -9.518955423034170      -1.798390781344342E2
 2.020176823183760E4    -9.509314503789687      -1.799142424080187E2    -3.542687190743621       4.542956482398820E-2   -3.534860068101385       3.371702326942961E-2   -9.517876291131733      -1.798363378381928E2
 2.044398132385675E4    -9.507014448433718      -1.798994562560106E2    -3.539034272886149       3.030090550201215E-2   -3.535327553195702       4.592125567348410E-2   -9.516465349576817      -1.798657780073660E2
 2.068909847760314E4    -9.511651556386344      -1.798994367985800E2    -3.541165989075434       4.514013415306022E-2   -3.535192583060330       3.979406966045913E-2   -9.515762025362575      -1.798594712305785E2
 2.093715451189877E4    -9.509650978898927      -1.798894577352835E2    -3.539462786389779       2.543375808124661E-2   -3.536106514803360       4.488874830192943E-2   -9.517700144019670      -1.798483630567162E2
 2.118818466303265E4    -9.515488392459389      -1.799136315430995E2    -3.538524574231454       5.014933614390411E-2   -3.534547849359333       5.482196593563162E-2   -9.517589869551863      -1.798885593332591E2
 2.144222458976629E4    -9.511200244914765      -1.799278727774574E2    -3.540357477917193       4.003855616857378E-2   -3.534871623906957       6.074490381012546E-2   -9.524561646196988      -1.798766998450791E2
 2.169931037839892E4    -9.510755758593524      -1.799338766194151E2    -3.540497146679721       5.354440339965371E-2   -3.537090834498338       5.893085938535407E-2   -9.519789129663259      -1.799381663617382E2
 2.195947854789372E4    -9.515774437722380      -1.799148291363250E2    -3.536983101501407       4.256881233312027E-2   -3.536783728230617       6.663670543440413E-2   -9.522835919562693      -1.799250074241041E2
 2.222276605506506E4    -9.510811531533300      -1.799177823001630E2    -3.539525501523263       4.252148518744354E-2   -3.538303905483868       5.249103043194140E-2   -9.516279076018556      -1.799051098514833E2
 2.248921029982833E4    -9.517921848061878      -1.799723641003249E2    -3.539045193424111       4.712570252359684E-2   -3.537256509060085       5.305479627017425E-2   -9.521110917883856      -1.799232253609292E2
 2.275884913051276E4    -9.516046276485516      -1.799386335757630E2    -3.538927546444310       4.875453721886988E-2   -3.536612052418168       4.640030445034041E-2   -9.519681777512833      -1.799065541901414E2
 2.303172084923743E4    -9.520210791952268      -1.799693148967803E2    -3.540548030372989       4.182943617347857E-2   -3.536598291480050       5.949682421161542E-2   -9.517776727929043      -1.799175686788486E2
 2.330786421735231E4    -9.520625179433996      -1.799531171007201E2    -3.538685504544288       5.702511386901795E-2   -3.535732913770193       5.691153544451406E-2   -9.522682831036422      -1.799011917868092E2
 2.358731846094418E4    -9.510617090388806      -1.799829710628288E2    -3.540498736769439       5.954129677199449E-2   -3.536336725683737       7.555070545010246E-2   -9.521661362438040      -1.799501015213135E2
 2.387012327640890E4    -9.515826116882963      -1.799570064195884E2    -3.538423144574248       6.443772179578451E-2   -3.535059846225594       5.365120149830051E-2   -9.523944577634024      -1.799319128637937E2
 2.415631883608994E4    -9.517450444631413      -1.799767566189790E2    -3.539551011514203       5.855526016109081E-2   -3.537047963842635       6.370937280813052E-2   -9.525326621563515      -1.799325646177727E2
 2.444594579398503E4    -9.518660856912639      -1.799823992625854E2    -3.542874186930978       6.753726829602474E-2   -3.535151911047006       5.994804757482650E-2   -9.524081782302252      -1.799652294051526E2
 2.473904529152120E4    -9.518658343227761      -1.799827726135379E2    -3.538033898739450       5.784921418606237E-2   -3.536507298609677       6.449009050137046E-2   -9.525703732498682      -1.799517257280439E2
 2.503565896339859E4    -9.517285027845565      -1.799759513098714E2    -3.540761710366638       5.548562237824309E-2   -3.536958993402012       5.899980264939376E-2   -9.524662811644740      -1.799550391025697E2
 2.533582894350484E4    -9.516425118368495      -1.799970722456473E2    -3.539019761696799       6.408251888758797E-2   -3.535599831136587       6.108051001903739E-2   -9.526684936108918      -1.799686922530388E2
 2.563959787090014E4    -9.520590277169550      -1.799966739963826E2    -3.538700436616643       7.525085295833246E-2   -3.535480724472396       7.586546133860726E-2   -9.525307875604957      -1.799537305195061E2
 2.594700889587424E4    -9.517977306306976       1.799855682902725E2    -3.541877979679925       7.027885534118287E-2   -3.536489165984794       6.350054157708585E-2   -9.525505453620942      -1.799789819616090E2
 2.625810568607569E4    -9.520610657092597       1.799889909824951E2    -3.540535604677893       6.502697182639072E-2   -3.536744661223501       9.154132531428895E-2   -9.527367945663816      -1.799576597764384E2
 2.657293243271491E4    -9.518914289592942       1.799762534720789E2    -3.541297433820621       7.235779035070783E-2   -3.535122787522287       6.964196913496015E-2   -9.527896733698928      -1.799623039508972E2
 2.689153385684176E4    -9.518814730273936       1.799786229649968E2    -3.541904295773722       6.739858120785060E-2   -3.533935436085980       6.655853746313296E-2   -9.526093234803648      -1.799486758116151E2
 2.721395521569778E4    -9.522853133391928       1.799902511587129E2    -3.539167167062245       8.593474465386447E-2   -3.537390110164291       7.097519978260218E-2   -9.528204461993987      -1.799963648093282E2
 2.754024230914521E4    -9.520247082285358       1.799949518318472E2    -3.540207723751811       6.477468426345395E-2   -3.535985017163254       6.745596147122662E-2   -9.524091097915461      -1.799747230917325E2
 2.787044148617274E4    -9.526843587215341      -1.799773257803017E2    -3.539271705595463       6.911449653300079E-2   -3.533456074648507       8.199038905805474E-2   -9.529006607296029      -1.799682584979432E2
 2.820459965147958E4    -9.520314817099219       1.799783346354535E2    -3.541118500754960       6.677941215880084E-2   -3.533488303647983       7.168111740687448E-2   -9.529801640159484      -1.799751736197800E2
 2.854276427213793E4    -9.524038560266670       1.799639653932556E2    -3.539073526661296       7.118417884091463E-2   -3.537783982769665       6.569478089040670E-2   -9.526844081174534      -1.799852367697821E2
 2.888498338433582E4    -9.522681516675018       1.799637297653156E2    -3.539773149110755       6.642921437948146E-2   -3.536092223049601       8.609352603324330E-2   -9.530202271862867      -1.799729698136778E2
 2.923130560020086E4    -9.522958148525651       1.799787550787800E2    -3.540134471035761       6.914763126716611E-2   -3.534687792350062       8.185685485055075E-2   -9.529057095295398      -1.799808673627893E2
 2.958178011470515E4    -9.527386599240732       1.799694667362820E2    -3.538357849266603       7.715835662532058E-2   -3.535793255402830       8.969900427327182E-2   -9.534876060114433      -1.799993742900215E2
