#  HZ   S   DB   R     50.00 
! Rohde & Schwarz Vector Network Analyzer 
! Rohde-Schwarz,ZNB8-4Port,1334333044101560,3.32
! Created: UTC 3/21/2023, 5:24:06 PM
! freq[Hz]                db:S11                  ang:S11                 db:S41                  ang:S41                 db:S14                  ang:S14                 db:S44                  ang:S44
 1.000000000000000E4    -1.929411133488844E1    -9.596215682239534E1    -5.691414331804923E-2   -6.118497085480127      -5.379841800286422E-2   -6.055109701255321      -1.931226691343965E1    -9.567291815635001E1
 1.011989697596740E4    -1.919607538732166E1    -9.583295766789796E1    -5.819956945398408E-2   -6.197686476185561      -5.400051503084987E-2   -6.128634350464363      -1.919111072052079E1    -9.585902691581285E1
 1.024123148041938E4    -1.908831046370166E1    -9.587667857209897E1    -5.756688911096935E-2   -6.300234738436076      -5.429464171290935E-2   -6.211624673759570      -1.909997333903019E1    -9.581649595027996E1
 1.036402074888782E4    -1.901785369469433E1    -9.601068168327704E1    -5.874251020672620E-2   -6.367985285190318      -5.580827344609892E-2   -6.316600220478694      -1.894798925409411E1    -9.639603752643929E1
 1.048828222355332E4    -1.892082216503735E1    -9.604032691351271E1    -5.904550329608999E-2   -6.407982041184943      -5.849859299571321E-2   -6.375091440150006      -1.888415186021944E1    -9.598938588071270E1
 1.061403355572299E4    -1.881071936960998E1    -9.628719759683713E1    -6.071343041179018E-2   -6.503091839975291      -6.436164074053326E-2   -6.440753337681987      -1.880005920274705E1    -9.623687533448849E1
 1.074129260833773E4    -1.867887782450208E1    -9.642248103021770E1    -6.686766190738219E-2   -6.604104445046482      -6.599163717783335E-2   -6.522031205576091      -1.872740734199215E1    -9.651444736442762E1
 1.087007745850980E4    -1.863539650868008E1    -9.642365959634115E1    -6.745060055332820E-2   -6.657286573457682      -6.312983102697250E-2   -6.622444599718595      -1.860074082901737E1    -9.652620682425878E1
 1.100040640009047E4    -1.849963761942765E1    -9.657748246742493E1    -6.349886362347906E-2   -6.746492977248471      -6.383437994874397E-2   -6.691761030636490      -1.849382632208211E1    -9.663827372539843E1
 1.113229794626877E4    -1.841881581646305E1    -9.640145772014560E1    -6.928920136334467E-2   -6.791663416774600      -6.620742835651519E-2   -6.791026130043101      -1.838844611900283E1    -9.695216116443839E1
 1.126577083220134E4    -1.832891612905264E1    -9.696416030844468E1    -7.565895142116033E-2   -6.907894778983206      -7.171599881401741E-2   -6.854278634366262      -1.830365206846972E1    -9.701332966372343E1
 1.140084401767360E4    -1.825690697930537E1    -9.702974141645072E1    -7.555073683598494E-2   -6.970829231997583      -6.985794990744759E-2   -6.931735686226923      -1.820582384276139E1    -9.683404825044558E1
 1.153753668979311E4    -1.815330616038353E1    -9.707855966081522E1    -7.746762166826127E-2   -7.060652822268402      -7.691522095224933E-2   -7.017114925606887      -1.812416223153142E1    -9.730864155395656E1
 1.167586826571499E4    -1.803962334641841E1    -9.715258989515644E1    -7.905152400954568E-2   -7.145439441606324      -7.821300330897552E-2   -7.113530034604118      -1.801834063119049E1    -9.735049024303032E1
 1.181585839540028E4    -1.794133580292887E1    -9.726230126965957E1    -7.832996349799332E-2   -7.223695705590736      -8.101938424869415E-2   -7.191269832326338      -1.793030762701427E1    -9.743647281263299E1
 1.195752696440703E4    -1.787182241859096E1    -9.743725466653488E1    -8.399974517757454E-2   -7.305509300861585      -8.210146246527311E-2   -7.254688805248134      -1.784000388034567E1    -9.744234005034861E1
 1.210089409671510E4    -1.775524314919640E1    -9.764806044284749E1    -8.444003212814044E-2   -7.397728433767027      -8.707621960318228E-2   -7.371827611040215      -1.774691495109073E1    -9.778692283836634E1
 1.224598015758489E4    -1.763332016283649E1    -9.780787114996373E1    -8.512328984665585E-2   -7.502929814301854      -8.797690359678695E-2   -7.457237588849499      -1.764534127958115E1    -9.772669299903325E1
 1.239280575645001E4    -1.755185539999386E1    -9.783580579690314E1    -9.045464271252032E-2   -7.577975361741959      -8.691639682678597E-2   -7.510001415259466      -1.755426099270924E1    -9.770785136153889E1
 1.254139174984498E4    -1.746064500033645E1    -9.785693010197899E1    -9.366763648212569E-2   -7.668212488036640      -9.182974742920730E-2   -7.595050935423517      -1.747528047934433E1    -9.790487579863780E1
 1.269175924436784E4    -1.736800890104704E1    -9.806591988447335E1    -9.809221883214439E-2   -7.760159241603594      -9.760897537850464E-2   -7.713142958068287      -1.735087787960041E1    -9.812227768392763E1
 1.284392959967844E4    -1.725796284909437E1    -9.798704976639746E1    -9.384659895749951E-2   -7.829068131130222      -9.429760387949189E-2   -7.803792811076583      -1.727117060528604E1    -9.815064909905395E1
 1.299792443153239E4    -1.717367401707170E1    -9.832372400933278E1    -1.003722991095059E-1   -7.938234430249913      -9.542044341107064E-2   -7.891325750678905      -1.716834034082688E1    -9.839833889431902E1
 1.315376561485171E4    -1.705527142433505E1    -9.832828159902242E1    -1.054321028772974E-1   -8.031790633553229      -1.028085337184494E-1   -7.999665051838440      -1.706306108486845E1    -9.847388213756228E1
 1.331147528683218E4    -1.698298341249075E1    -9.849418671137545E1    -1.073238456404209E-1   -8.124484651077045      -1.038182242161134E-1   -8.066163085936777      -1.697700320604802E1    -9.856185833758292E1
 1.347107585008777E4    -1.687530681466128E1    -9.862376066481174E1    -1.098558333731931E-1   -8.208828657680741      -1.077371133898403E-1   -8.175525997714916      -1.687085508490523E1    -9.883378657612244E1
 1.363258997583304E4    -1.679349719537771E1    -9.868203165270448E1    -1.125731470397210E-1   -8.297146061934701      -1.081159884652441E-1   -8.254409390289437      -1.676261882005726E1    -9.871275664037960E1
 1.379604060710362E4    -1.666862262862638E1    -9.876109836258280E1    -1.125058999805523E-1   -8.414602880996371      -1.117375767899631E-1   -8.379917741548034      -1.668907247311419E1    -9.902216525329756E1
 1.396145096201513E4    -1.659085352209356E1    -9.892947801722298E1    -1.172719713523838E-1   -8.478831676334879      -1.154954169499724E-1   -8.464687298934637      -1.659092040900814E1    -9.897950661591675E1
 1.412884453706141E4    -1.650295413672759E1    -9.909830113947592E1    -1.177652718513774E-1   -8.588614504890419      -1.179140840390824E-1   -8.563241271631073      -1.650235447508403E1    -9.914719363212251E1
 1.429824511045209E4    -1.641790476406212E1    -9.918002496270348E1    -1.247613886937322E-1   -8.677066483205801      -1.227414883725546E-1   -8.647323872076109      -1.640583097951812E1    -9.930556599460721E1
 1.446967674549047E4    -1.629364683225269E1    -9.924596363226632E1    -1.244986910404850E-1   -8.784603470461818      -1.203390305346541E-1   -8.758748738977120      -1.629685230588533E1    -9.933106983452140E1
 1.464316379399148E4    -1.622272846591411E1    -9.944823147665630E1    -1.309752178144610E-1   -8.877282271337679      -1.257068454664276E-1   -8.865754680158096      -1.620806303512246E1    -9.958624368968140E1
 1.481873089974093E4    -1.611744368151264E1    -9.955007280966224E1    -1.315918038909452E-1   -8.993818621049760      -1.308607989591268E-1   -8.965405287618609      -1.611190892090718E1    -9.974246399064414E1
 1.499640300199629E4    -1.601845317994815E1    -9.967032619015193E1    -1.353682520517807E-1   -9.102220250184210      -1.343152982783337E-1   -9.063723687638999      -1.601949596300219E1    -9.982315623465691E1
 1.517620533902906E4    -1.591371275700888E1    -9.985501804265877E1    -1.382195146485720E-1   -9.203036037622274      -1.383670734125565E-1   -9.158699704294792      -1.593195168498745E1    -9.985057588537252E1
 1.535816345171005E4    -1.582688272074208E1    -9.993387970406138E1    -1.405511103469430E-1   -9.291499623532951      -1.362688758367298E-1   -9.258890496788574      -1.581636542912016E1    -9.988669815943199E1
 1.554230318713732E4    -1.571856837415998E1    -1.000966857856474E2    -1.424367619718928E-1   -9.430068050859100      -1.402278021853524E-1   -9.360423390708874      -1.572844366902631E1    -9.997619584672971E1
 1.572865070230794E4    -1.562364889653541E1    -1.002293008575587E2    -1.474068964405860E-1   -9.514076281425714      -1.467733835964672E-1   -9.496880568162309      -1.563683430970600E1    -1.001842595844835E2
 1.591723246783336E4    -1.553872608182920E1    -1.003519570691275E2    -1.512743527009570E-1   -9.632883166821571      -1.484242860586138E-1   -9.603215907706167      -1.551560939884932E1    -1.003525419234269E2
 1.610807527169965E4    -1.542650900836963E1    -1.004508576909254E2    -1.535269999772661E-1   -9.760423559056836      -1.509365286539610E-1   -9.717817057519758      -1.542870225956975E1    -1.004355087832327E2
 1.630120622307285E4    -1.534728190127737E1    -1.005776672630272E2    -1.565920283153110E-1   -9.841364418231413      -1.550464807835594E-1   -9.806287234854230      -1.535058080790412E1    -1.004805231261134E2
 1.649665275614959E4    -1.525100093653883E1    -1.008215001042042E2    -1.631861757969361E-1   -9.976636989259463      -1.570432586308046E-1   -9.919670372370481      -1.524468075760869E1    -1.006123739969686E2
 1.669444263405424E4    -1.514049124194820E1    -1.008297462309052E2    -1.649295338058454E-1   -1.008049765334886E1    -1.619166133519646E-1   -1.004310575236756E1    -1.515237423397595E1    -1.007652834360018E2
 1.689460395278264E4    -1.504396725295391E1    -1.009098959682283E2    -1.671516252571391E-1   -1.020324992262629E1    -1.655498137253490E-1   -1.016055758512092E1    -1.505423796952813E1    -1.010335541037001E2
 1.709716514519318E4    -1.494812085835823E1    -1.010239299647324E2    -1.746020491253937E-1   -1.031767764734328E1    -1.692922706482639E-1   -1.027501043758660E1    -1.497235500304214E1    -1.010551069088716E2
 1.730215498504557E4    -1.486166681065721E1    -1.011865454690885E2    -1.764370362797405E-1   -1.043403209310340E1    -1.755384215714306E-1   -1.040524359459772E1    -1.486407369615789E1    -1.012347995370450E2
 1.750960259108815E4    -1.476099797986758E1    -1.013261775238841E2    -1.786170487211702E-1   -1.054284449476026E1    -1.770164468237201E-1   -1.052127936584851E1    -1.475989257810159E1    -1.012764230288668E2
 1.771953743119439E4    -1.467022261683707E1    -1.015235751307711E2    -1.851372516031538E-1   -1.067393767798588E1    -1.786220572114335E-1   -1.063549933252790E1    -1.466497196905486E1    -1.014201309341433E2
 1.793198932654852E4    -1.456115490874295E1    -1.015871589463873E2    -1.867278174171028E-1   -1.079518566414010E1    -1.846734794120057E-1   -1.076588186746688E1    -1.456891269812127E1    -1.015249182246276E2
 1.814698845588179E4    -1.445921305959496E1    -1.017256129214610E2    -1.888856897355859E-1   -1.092348843080660E1    -1.854882232372100E-1   -1.089360121820530E1    -1.447000680990107E1    -1.016328323512075E2
 1.836456535975930E4    -1.437734703361323E1    -1.018453955886909E2    -1.958495106210568E-1   -1.103159921333335E1    -1.925911522544916E-1   -1.099774884790430E1    -1.438086927073225E1    -1.018301425559764E2
 1.858475094491838E4    -1.428108073366575E1    -1.019749136683202E2    -2.018793196150374E-1   -1.115629461818711E1    -1.956868877597109E-1   -1.111891108012315E1    -1.428692142381855E1    -1.019485234696359E2
 1.880757648865867E4    -1.418204660492043E1    -1.020503628790852E2    -2.021848049519926E-1   -1.128702879484363E1    -1.977752770476026E-1   -1.125662365040151E1    -1.417813635348623E1    -1.020366765385574E2
 1.903307364328520E4    -1.409004695041260E1    -1.021866460023568E2    -2.097599456722807E-1   -1.140966709132850E1    -2.035442496232602E-1   -1.136712482137836E1    -1.409195729230261E1    -1.021960890071458E2
 1.926127444060467E4    -1.399054843132959E1    -1.023558651250401E2    -2.125501333254576E-1   -1.155056777663633E1    -2.106237162512620E-1   -1.152308714135135E1    -1.398776827281197E1    -1.022923544139103E2
 1.949221129647533E4    -1.389986333426401E1    -1.024834645725779E2    -2.162850281734880E-1   -1.167081017202693E1    -2.156299218876840E-1   -1.163014560104733E1    -1.391458890259184E1    -1.024224761170262E2
 1.972591701541182E4    -1.379000687332845E1    -1.025833261417246E2    -2.195777458276972E-1   -1.180563782947691E1    -2.184760882157700E-1   -1.178493567256289E1    -1.380103442947186E1    -1.026424495342104E2
 1.996242479524495E4    -1.370576133149403E1    -1.027493182571904E2    -2.265577166839408E-1   -1.192609843185090E1    -2.246699653899575E-1   -1.189547111850286E1    -1.371305809934276E1    -1.027475239330389E2
 2.020176823183760E4    -1.360535807910224E1    -1.029272688090541E2    -2.322855630780804E-1   -1.207258073205104E1    -2.279532080674116E-1   -1.205311688434704E1    -1.361362860770654E1    -1.028983313412267E2
 2.044398132385675E4    -1.350884355698581E1    -1.030736679331283E2    -2.348383218854313E-1   -1.221223677853653E1    -2.334864029698547E-1   -1.218844975061301E1    -1.351510293760710E1    -1.030098204051969E2
 2.068909847760314E4    -1.340542181929231E1    -1.031595570081698E2    -2.396249280564609E-1   -1.234532816654012E1    -2.361504391151945E-1   -1.234233079991685E1    -1.340779129235385E1    -1.031855669138154E2
 2.093715451189877E4    -1.330771440515758E1    -1.033411001360539E2    -2.461308180600051E-1   -1.249545428710406E1    -2.423369008282976E-1   -1.245666965340788E1    -1.331558557389881E1    -1.032735326212163E2
 2.118818466303265E4    -1.322036635565688E1    -1.034375223205422E2    -2.500583811029900E-1   -1.262155516765785E1    -2.475060107924010E-1   -1.259699241973281E1    -1.322606792971550E1    -1.034368907722601E2
 2.144222458976629E4    -1.312190867540832E1    -1.036281733165251E2    -2.552794944053922E-1   -1.277388137458234E1    -2.538034980092125E-1   -1.273869201865854E1    -1.314366576674612E1    -1.035549774438925E2
 2.169931037839892E4    -1.302766316142342E1    -1.037342882349921E2    -2.606008110569449E-1   -1.289562398657096E1    -2.595375326697660E-1   -1.290201961541280E1    -1.303601487543814E1    -1.037788107323203E2
 2.195947854789372E4    -1.293267353646927E1    -1.037991356264355E2    -2.639545580383116E-1   -1.305037645241362E1    -2.642362650256712E-1   -1.303055488090598E1    -1.294275675555091E1    -1.038448191910906E2
 2.222276605506506E4    -1.283728274530777E1    -1.039967935169497E2    -2.713798852806177E-1   -1.319754769345371E1    -2.701971572036390E-1   -1.318834844735727E1    -1.284468384058562E1    -1.040206846197622E2
 2.248921029982833E4    -1.275075995845283E1    -1.042104107232835E2    -2.778251820946537E-1   -1.335374679495350E1    -2.745800638271679E-1   -1.334544051051396E1    -1.274305850605606E1    -1.041824765289133E2
 2.275884913051276E4    -1.265243591182201E1    -1.043316613210927E2    -2.846784403461725E-1   -1.350046775631433E1    -2.812141332187733E-1   -1.348895138244120E1    -1.265283510496064E1    -1.043432141665067E2
 2.303172084923743E4    -1.255548563701558E1    -1.044666782377658E2    -2.901456062903404E-1   -1.364911589478264E1    -2.872154853375075E-1   -1.364240906994811E1    -1.255808512100700E1    -1.044722211381870E2
 2.330786421735231E4    -1.244532389434804E1    -1.046229002574115E2    -2.940569091401508E-1   -1.381416922258425E1    -2.924431052053031E-1   -1.380512492235001E1    -1.245512719276087E1    -1.046009679791866E2
 2.358731846094418E4    -1.235665512671280E1    -1.048370838937229E2    -3.008738583733073E-1   -1.397313618032214E1    -2.997716384831496E-1   -1.393700469932426E1    -1.236614547992606E1    -1.047569969901542E2
 2.387012327640890E4    -1.226565362157643E1    -1.049362542309101E2    -3.075753070624504E-1   -1.411851645447907E1    -3.038740067385638E-1   -1.410565399372589E1    -1.226607239416108E1    -1.048846555796749E2
 2.415631883608994E4    -1.216920790703991E1    -1.050944781630039E2    -3.136462666060921E-1   -1.428423842315066E1    -3.111400243993593E-1   -1.426812757701529E1    -1.217897510470593E1    -1.050839364250864E2
 2.444594579398503E4    -1.207334764890486E1    -1.052705071566857E2    -3.229593486394886E-1   -1.444448678336027E1    -3.189245063696446E-1   -1.442070894073414E1    -1.208286947793701E1    -1.052514428699409E2
 2.473904529152120E4    -1.198196393520311E1    -1.054161560114224E2    -3.273568452682516E-1   -1.459003206369145E1    -3.251134063092642E-1   -1.458283291921207E1    -1.198869204532340E1    -1.054377106082792E2
 2.503565896339859E4    -1.187947414145542E1    -1.055560880261867E2    -3.322979471873573E-1   -1.476689582555983E1    -3.287814009872080E-1   -1.475360558369013E1    -1.188983648422426E1    -1.055573026190776E2
 2.533582894350484E4    -1.178092108260016E1    -1.057727258635685E2    -3.413027585495024E-1   -1.494096539304351E1    -3.385692446797306E-1   -1.491946682914187E1    -1.180123386038445E1    -1.057299732789907E2
 2.563959787090014E4    -1.168970446901278E1    -1.059127807293620E2    -3.481369227852016E-1   -1.510095054658864E1    -3.462730688007249E-1   -1.507951857526727E1    -1.170287292293595E1    -1.058871503585034E2
 2.594700889587424E4    -1.159245019697154E1    -1.061220007796836E2    -3.563799363592773E-1   -1.528143176478231E1    -3.526370380264143E-1   -1.526953768638521E1    -1.160439067086909E1    -1.060908340220627E2
 2.625810568607569E4    -1.150710636612948E1    -1.062396918189624E2    -3.645061666661726E-1   -1.544261519050507E1    -3.606956311269403E-1   -1.543653920524149E1    -1.150974854568695E1    -1.062500834158190E2
 2.657293243271491E4    -1.141936934030384E1    -1.064188901085134E2    -3.720794205673431E-1   -1.561210629022554E1    -3.662988502154365E-1   -1.559316578316007E1    -1.141275312694687E1    -1.063893851340938E2
 2.689153385684176E4    -1.131772497296499E1    -1.066022343034098E2    -3.803887729459322E-1   -1.578833144539521E1    -3.741378684676817E-1   -1.577197769612410E1    -1.132285003871112E1    -1.065452439940877E2
 2.721395521569778E4    -1.122239066974746E1    -1.067783700079386E2    -3.857648116860394E-1   -1.596109143179121E1    -3.822819783837452E-1   -1.594987872384006E1    -1.122800424751842E1    -1.067007989552235E2
 2.754024230914521E4    -1.112213276511386E1    -1.069537710680214E2    -3.959469911846269E-1   -1.614455120550211E1    -3.923937244377298E-1   -1.613267642875745E1    -1.113704367392300E1    -1.069638771479209E2
 2.787044148617274E4    -1.102904397170907E1    -1.071174961108138E2    -4.030898661180063E-1   -1.632507898709397E1    -3.999405835454908E-1   -1.630207462234296E1    -1.104186251551062E1    -1.071141270179465E2
 2.820459965147958E4    -1.093975210100483E1    -1.073110758572355E2    -4.107982169609153E-1   -1.650354851859995E1    -4.071452182697152E-1   -1.650738339416667E1    -1.094369832540357E1    -1.072739011518441E2
 2.854276427213793E4    -1.084486662431962E1    -1.075019951354880E2    -4.195033120761454E-1   -1.668948488579887E1    -4.173188982670479E-1   -1.669538786230608E1    -1.084818693403694E1    -1.074620169361026E2
 2.888498338433582E4    -1.075471680638244E1    -1.076548951388354E2    -4.285185411283876E-1   -1.686651437477945E1    -4.249244846836133E-1   -1.686908540456320E1    -1.075852132471185E1    -1.076261675896067E2
 2.923130560020086E4    -1.065300215556956E1    -1.078261607760021E2    -4.353905560830804E-1   -1.706278128924813E1    -4.358388950157212E-1   -1.704734873005296E1    -1.066180304263352E1    -1.078197339633888E2
 2.958178011470515E4    -1.056738379807712E1    -1.080612387053746E2    -4.467279362955296E-1   -1.724481257562812E1    -4.458519081214195E-1   -1.724338488173813E1    -1.056964997328443E1    -1.080111691731579E2
