#  HZ   S   DB   R     50.00 
! Rohde & Schwarz Vector Network Analyzer 
! Rohde-Schwarz,ZNB8-4Port,1334333044101560,3.32
! Created: UTC 3/21/2023, 5:13:50 PM
! freq[Hz]                db:S11                  ang:S11                 db:S41                  ang:S41                 db:S14                  ang:S14                 db:S44                  ang:S44
 1.000000000000000E4    -9.557614015421878      -3.012533748751668E-1   -3.519135450008701      -2.453523289460319E-1   -3.520717290342659      -2.420620571686863E-1   -9.514282533978809      -1.217314034799725E-1
 1.011989697596740E4    -9.540308391333271      -3.767870952662104E-1   -3.510542971584992      -2.689344778572158E-1   -3.520537918898039      -2.825891276118379E-1   -9.527563118854335      -1.297897026874105E-1
 1.024123148041938E4    -9.545471854538954      -2.728542572480481E-1   -3.517819804655501      -2.588465443071682E-1   -3.517106833287267      -2.453143352398335E-1   -9.522767893988204      -1.865384898271716E-1
 1.036402074888782E4    -9.556280419940688      -2.438590089937058E-1   -3.521083917103725      -2.756608352333642E-1   -3.516762784001291      -2.777251897687935E-1   -9.528689036270936      -2.197837015408688E-1
 1.048828222355332E4    -9.552156292017639      -3.434776032839285E-1   -3.515870389081100      -2.719085973438581E-1   -3.515530751373683      -2.682686668695410E-1   -9.528367303730603      -2.458260748096017E-1
 1.061403355572299E4    -9.558262921229709      -3.215273968149720E-1   -3.514289408011878      -2.764886368650830E-1   -3.515967133648572      -2.391876111512964E-1   -9.546549116430320      -2.106659945967708E-1
 1.074129260833773E4    -9.564388919674462      -3.393685285859074E-1   -3.520971699408127      -2.880190921588381E-1   -3.521480655324227      -2.317511492179922E-1   -9.549164931686535      -1.763311422276341E-1
 1.087007745850980E4    -9.552843617346763      -2.650270114060309E-1   -3.519721873942649      -2.534228211273153E-1   -3.512273305579665      -2.778451053840370E-1   -9.541179340162175      -1.927904876578821E-1
 1.100040640009047E4    -9.556940519079470      -2.788230949365140E-1   -3.516167578007561      -2.917375039076766E-1   -3.518917525871366      -2.832721729490240E-1   -9.550915497949617      -1.518632883304697E-1
 1.113229794626877E4    -9.545391386285631      -2.447319800418612E-1   -3.518240507231442      -2.607827365549870E-1   -3.521725705708314      -2.872046141218129E-1   -9.564888183932364      -1.332408969943253E-1
 1.126577083220134E4    -9.552513973447827      -2.687651669083067E-1   -3.516339119139326      -2.785828482573395E-1   -3.520486992680087      -2.955079106334770E-1   -9.559270822547990      -2.169438946412441E-1
 1.140084401767360E4    -9.559712175961433      -2.793070387262312E-1   -3.520097707473858      -2.633900060038075E-1   -3.519561297072908      -2.346339309410429E-1   -9.550755316913150      -1.646799574139241E-1
 1.153753668979311E4    -9.558743812467789      -1.795819461001740E-1   -3.522957823190361      -2.442699415235248E-1   -3.521478194488350      -2.742911947877290E-1   -9.568810696947155      -1.785843512768372E-1
 1.167586826571499E4    -9.547403123782466      -2.353215654163356E-1   -3.520164045223110      -2.530793357574264E-1   -3.519405493764550      -2.674284692708475E-1   -9.570325970794132      -2.273546111427726E-1
 1.181585839540028E4    -9.558773237037943      -2.874080361296014E-1   -3.520010582012100      -2.379170833253822E-1   -3.522768231890674      -2.551355265424540E-1   -9.570431734880021      -1.262121634488789E-1
 1.195752696440703E4    -9.564006231614133      -2.206230803142543E-1   -3.524872516331358      -2.439847241277039E-1   -3.517646395317366      -2.346090673192313E-1   -9.555899778593091      -1.763403405483017E-1
 1.210089409671510E4    -9.570182058261494      -2.403838789109621E-1   -3.521589426359804      -2.517741569847688E-1   -3.519565211842331      -2.796092936443642E-1   -9.566208435571637      -1.880596765139145E-1
 1.224598015758489E4    -9.564781197392513      -2.653769735887552E-1   -3.521068501998663      -2.706873973627650E-1   -3.522288965733891      -2.715171204625592E-1   -9.572962514068099      -1.731733430178781E-1
 1.239280575645001E4    -9.562004908825289      -1.862333698769563E-1   -3.524130289760319      -2.358057308882831E-1   -3.522316766415764      -2.344059507754176E-1   -9.571911197734783      -1.153890720103267E-1
 1.254139174984498E4    -9.568242906456385      -2.127555088018635E-1   -3.520529912515673      -2.405014626903855E-1   -3.523307452211395      -2.220897577804061E-1   -9.570249656386258      -1.280127559239503E-1
 1.269175924436784E4    -9.579055351474665      -2.346857551155382E-1   -3.528332262660407      -2.426782223721109E-1   -3.524704347417551      -2.535948302703974E-1   -9.574793674144619      -1.306879624020703E-1
 1.284392959967844E4    -9.559301780165335      -2.111930101937157E-1   -3.519624700925146      -2.323090265938815E-1   -3.523909161921972      -2.323780903655176E-1   -9.572483872509222      -1.586476997845093E-1
 1.299792443153239E4    -9.579369660526527      -1.536450352311241E-1   -3.527586013608817      -2.513024931126130E-1   -3.525057153306182      -2.388089862658958E-1   -9.575480412701458      -1.320719192035480E-1
 1.315376561485171E4    -9.570583701449808      -1.501738929053281E-1   -3.527703510536244      -2.153215330200679E-1   -3.522090892873813      -2.398772725472320E-1   -9.579358885024796      -9.825454890204553E-2
 1.331147528683218E4    -9.569286809441980      -2.084571859038487E-1   -3.527895721331502      -2.313185788624463E-1   -3.524687007371496      -2.469336939965300E-1   -9.569472709344986      -1.289127205470342E-1
 1.347107585008777E4    -9.566017282496871      -1.840849152680002E-1   -3.524544838742327      -2.280861793988723E-1   -3.525822564458685      -2.293080147617451E-1   -9.575140677941976      -1.218404678756062E-1
 1.363258997583304E4    -9.575457711491870      -2.003038057352499E-1   -3.526938777901929      -2.325048747938330E-1   -3.523705050003010      -2.238424363175378E-1   -9.571122450920921      -1.702168093695823E-1
 1.379604060710362E4    -9.570454954268076      -2.044459400064797E-1   -3.526171268742361      -2.318814170475819E-1   -3.528884742327953      -2.295151280271761E-1   -9.584129268182735      -9.856588038582345E-2
 1.396145096201513E4    -9.577277080467091      -2.130585522673211E-1   -3.530356691046249      -2.276644094033589E-1   -3.529428910511778      -2.267204000021513E-1   -9.588141336638062      -1.274203956624367E-1
 1.412884453706141E4    -9.569925787476311      -2.048054752322777E-1   -3.526809499265463      -2.175789983403704E-1   -3.527058870151478      -2.299335168253149E-1   -9.584701239999131      -1.018677825263453E-1
 1.429824511045209E4    -9.580316748233392      -1.558638039643269E-1   -3.531023789107954      -2.269866945777596E-1   -3.529547065213590      -2.365427667904573E-1   -9.581225773320853      -1.120269802657549E-1
 1.446967674549047E4    -9.575815894536417      -1.573975621086361E-1   -3.529093994467709      -2.291379207416835E-1   -3.529172501766611      -2.206714831388567E-1   -9.580278063880609      -1.068232518518084E-1
 1.464316379399148E4    -9.576331465850739      -1.710366363632207E-1   -3.530483167015740      -1.973544999261387E-1   -3.527070563712629      -2.261890964530128E-1   -9.580695637854246      -1.393278185507721E-1
 1.481873089974093E4    -9.581831803746079      -1.165953121355424E-1   -3.530323928172426      -2.033798041093265E-1   -3.529476079395518      -2.327535055635508E-1   -9.581372891878125      -8.668077149218942E-2
 1.499640300199629E4    -9.579315288702354      -1.346942625778955E-1   -3.527872885220604      -1.914913914171614E-1   -3.527285013590103      -2.030753723882972E-1   -9.582434781588336      -1.465112643634136E-1
 1.517620533902906E4    -9.581391281184722      -9.598949587957745E-2   -3.530001764946827      -1.987354580765627E-1   -3.533307211701205      -1.924910034063888E-1   -9.584948961202759      -7.777781138795282E-2
 1.535816345171005E4    -9.582184438060697      -1.342260828171354E-1   -3.530183900105092      -2.026554358679570E-1   -3.529616361643823      -1.717659899640594E-1   -9.573513375097287      -7.975938870168238E-2
 1.554230318713732E4    -9.583674373633272      -1.518836357725976E-1   -3.529782476245292      -2.187534286428407E-1   -3.529621164187037      -2.037304279279332E-1   -9.580676782256251      -6.602081220782474E-2
 1.572865070230794E4    -9.581946874781483      -9.397126912290243E-2   -3.530796943285136      -2.039029099548505E-1   -3.533641094107857      -2.044402095651042E-1   -9.578773998164426      -7.128546914424456E-2
 1.591723246783336E4    -9.591452631825998      -1.105494075027409E-1   -3.531949505312660      -2.092640024864632E-1   -3.528448882490094      -1.954076186286949E-1   -9.586519035203402      -8.714889773534418E-2
 1.610807527169965E4    -9.584283544850985      -1.193787391278505E-1   -3.535094720131738      -1.976972050281287E-1   -3.530807727977843      -1.953538084215506E-1   -9.584807306869553      -5.175702554002103E-2
 1.630120622307285E4    -9.584498737627289      -1.492996662345986E-1   -3.531042613906441      -1.996296177874151E-1   -3.531466390641413      -1.555100685028072E-1   -9.582932250557556      -7.785633865358503E-3
 1.649665275614959E4    -9.595660926669009      -1.384834192037346E-1   -3.535295985778977      -2.080642776365857E-1   -3.535356783392642      -1.787780650883305E-1   -9.588665991663397      -7.318392510791978E-2
 1.669444263405424E4    -9.589374741780885      -9.369640144706630E-2   -3.533419728568305      -2.050732780460827E-1   -3.527342648317710      -1.688774894393744E-1   -9.588981053833168      -2.606534284214524E-2
 1.689460395278264E4    -9.586490046723510      -7.649636350642808E-2   -3.533673530634545      -1.672860540109520E-1   -3.532842686373806      -1.702150855156541E-1   -9.584875091676128      -5.043355333320333E-2
 1.709716514519318E4    -9.589747110548434      -4.523101587891264E-2   -3.534342984410860      -1.897210624289246E-1   -3.533572266804645      -1.595318428816327E-1   -9.583016304224701      -4.909488304985456E-3
 1.730215498504557E4    -9.585711283068093      -7.578311152684221E-2   -3.534899012226696      -1.511554763240717E-1   -3.531990010318054      -1.765446010454832E-1   -9.588491702531254      -4.261177712975156E-2
 1.750960259108815E4    -9.585229171908253      -1.030641405058861E-1   -3.534546604546485      -1.472615191499615E-1   -3.528775459991011      -1.424810059495170E-1   -9.582620797605095      -2.547078211212045E-2
 1.771953743119439E4    -9.586676585309563      -4.868662548982501E-2   -3.534304587412350      -1.978216764054607E-1   -3.532788999842479      -1.367777659406386E-1   -9.584869901742488       3.414865827851211E-2
 1.793198932654852E4    -9.587759784168385      -5.038974082896833E-2   -3.533633517507426      -1.577932588788839E-1   -3.534154160104129      -1.511782533097086E-1   -9.593748866644159       2.572589631239244E-2
 1.814698845588179E4    -9.589271865355217      -7.788091464478963E-2   -3.534536099423573      -1.711109062344584E-1   -3.531136256044098      -1.607158647821996E-1   -9.591798774972979       6.421673450854553E-3
 1.836456535975930E4    -9.586735345139532      -2.776241035257781E-2   -3.536296413284579      -1.654671085834119E-1   -3.530984806206741      -1.396837772505448E-1   -9.589388459339389       3.395439236397223E-2
 1.858475094491838E4    -9.593926980586273      -3.407591567027274E-2   -3.536809313691910      -1.588245871429976E-1   -3.531270632132544      -1.367599620772683E-1   -9.585121333325946       1.524205677063680E-2
 1.880757648865867E4    -9.593217612750340      -1.964557383850155E-3   -3.536569169087604      -1.490680858873875E-1   -3.531688637316264      -1.272538124563221E-1   -9.582853683857167       4.736593005883770E-2
 1.903307364328520E4    -9.595685584409999      -5.315687804216841E-2   -3.537977865017071      -1.565917784183671E-1   -3.534484716300710      -1.275507342045426E-1   -9.583029462187678       4.669556608652053E-2
 1.926127444060467E4    -9.594375114105272       8.589263632844225E-3   -3.534333306791006      -1.504255745327448E-1   -3.537611716065565      -1.342817505857376E-1   -9.582881332015184       2.103415242189857E-2
 1.949221129647533E4    -9.590844992178551       1.364729250084498E-2   -3.536814577308449      -1.231705682066108E-1   -3.535118769684269      -1.110139021358995E-1   -9.588227484844463       7.076061774439305E-2
 1.972591701541182E4    -9.590792144817561       6.194267968983677E-4   -3.537435411618253      -1.255816334929017E-1   -3.536955537433007      -1.320012211157681E-1   -9.592219415020958       8.370805920972829E-2
 1.996242479524495E4    -9.590709241055379       2.692295744140829E-2   -3.536065637399620      -1.248986612078105E-1   -3.536043470253063      -1.178369954763977E-1   -9.593250455565721       4.125757087268110E-2
 2.020176823183760E4    -9.588747628650026      -5.493326807771055E-4   -3.537627103352060      -1.222192631312420E-1   -3.537656055494911      -1.226086478784633E-1   -9.592171295171179       5.599124558138023E-2
 2.044398132385675E4    -9.591315635916835       1.065008319628149E-2   -3.536151346062705      -1.259543281015782E-1   -3.536668712479503      -1.192697782544269E-1   -9.593466084371631       7.074334036294502E-2
 2.068909847760314E4    -9.595281198856281       5.156152044183970E-2   -3.538433955058680      -9.804442694039871E-2   -3.533193107461297      -1.322675788144017E-1   -9.592514545814486       7.246547162752895E-2
 2.093715451189877E4    -9.594458865395030       2.076118693286171E-2   -3.538563476891094      -1.294275875796307E-1   -3.535320674541859      -1.070397347679271E-1   -9.585586192085669       5.355532264322649E-2
 2.118818466303265E4    -9.587324161343400       2.016952625159095E-2   -3.538367521871018      -1.154568249079642E-1   -3.534845276085496      -9.508283935812976E-2   -9.590169934353053       1.076693051228613E-1
 2.144222458976629E4    -9.592535358041674       4.695685775745596E-2   -3.537734140110528      -1.073022903479945E-1   -3.535461039674104      -1.102279322391532E-1   -9.588760105908280       1.005525511079916E-1
 2.169931037839892E4    -9.589307236555308       3.380467329909877E-2   -3.538623282920376      -9.889340335254604E-2   -3.535688019090384      -9.975028115047713E-2   -9.587575417178657       1.084352220322869E-1
 2.195947854789372E4    -9.588137886187965       3.177118698233197E-2   -3.536446298360244      -1.100133943699654E-1   -3.535309757992539      -9.238477698729039E-2   -9.585933120213946       8.012200055994502E-2
 2.222276605506506E4    -9.591185110962337       3.760360590249524E-2   -3.538147731020898      -1.066032196061793E-1   -3.536300152132690      -9.631822643634556E-2   -9.583990491063055       1.231007588010484E-1
 2.248921029982833E4    -9.588695877517901       8.068744569160101E-2   -3.539623381495654      -1.088574048087546E-1   -3.534422870882750      -8.069334599436341E-2   -9.589768770748591       8.587095739327605E-2
 2.275884913051276E4    -9.590094687792035       7.573829456618371E-2   -3.538001611354664      -8.449800977323770E-2   -3.537085536800913      -8.743253520378701E-2   -9.586853907515307       9.441595366481451E-2
 2.303172084923743E4    -9.588965225626540       8.437530417159943E-2   -3.540839412268186      -8.580710865653519E-2   -3.539507652071165      -1.035589326454658E-1   -9.596632494077253       1.334437026459959E-1
 2.330786421735231E4    -9.587283905012907       4.631880915428108E-2   -3.537005880309669      -9.389822758905621E-2   -3.535423085389560      -8.537654994198908E-2   -9.584916345999149       1.022417789589443E-1
 2.358731846094418E4    -9.587412345925058       7.709706233204253E-2   -3.534456515589485      -9.609045990796466E-2   -3.533976832605641      -6.474911226797005E-2   -9.583686463056257       1.440044948251186E-1
 2.387012327640890E4    -9.588938713925582       9.982262917415649E-2   -3.539945468819691      -7.962561703684376E-2   -3.535067596433533      -5.832964677965993E-2   -9.582752348128951       1.152729805165683E-1
 2.415631883608994E4    -9.585019360985680       9.433201686979208E-2   -3.537537357275890      -8.404601616102411E-2   -3.535243227294274      -6.861375965040849E-2   -9.587698450646508       1.135373628986637E-1
 2.444594579398503E4    -9.583133595748020       8.769836065575148E-2   -3.535595449128363      -7.221203584293617E-2   -3.533806037678613      -6.676523624461957E-2   -9.582857742200574       1.404775222721459E-1
 2.473904529152120E4    -9.587061012317708       7.875855263652815E-2   -3.537970770193842      -7.356137643481821E-2   -3.537985241929666      -6.281372935784373E-2   -9.580570014170457       1.344099898282407E-1
 2.503565896339859E4    -9.587432708138554       9.103753193437431E-2   -3.538391280309638      -5.672785961997066E-2   -3.534846953007867      -6.657149908495021E-2   -9.584681219727479       1.063623875439361E-1
 2.533582894350484E4    -9.582782673893007       6.686660246633735E-2   -3.535187576436007      -6.613197320012117E-2   -3.535206900655850      -5.068340034518911E-2   -9.578854671072159       1.499460036468842E-1
 2.563959787090014E4    -9.588474078374578       1.066755191927116E-1   -3.536023096877536      -6.535154279332869E-2   -3.536204230483089      -5.378599951058947E-2   -9.581299372382153       1.448418353892261E-1
 2.594700889587424E4    -9.589287994547334       1.069799039945490E-1   -3.536179106766989      -7.342010897970266E-2   -3.538036339938846      -6.517026190826655E-2   -9.585322361228956       1.529926495460406E-1
 2.625810568607569E4    -9.585035663429077       1.035546821991348E-1   -3.537361944192746      -4.975446535160948E-2   -3.536206231736135      -3.731896759704880E-2   -9.577860252519644       1.426695649979102E-1
 2.657293243271491E4    -9.584316899752782       1.139071324250394E-1   -3.538589798205401      -4.923877047675075E-2   -3.531700892249799      -6.126151713001309E-2   -9.581734632028475       1.515699893629270E-1
 2.689153385684176E4    -9.586242484953964       1.162506170517518E-1   -3.537117359823148      -6.003898941916424E-2   -3.532875451104449      -3.535207894646392E-2   -9.576491511828950       1.502132014681448E-1
 2.721395521569778E4    -9.578136309424817       1.269201494838054E-1   -3.535339809649178      -4.829341172278727E-2   -3.534260406668981      -3.538379963683063E-2   -9.575378138261646       1.686430782696519E-1
 2.754024230914521E4    -9.585180320394732       1.176977916365078E-1   -3.538360327698459      -4.751711470188588E-2   -3.534650607521998      -4.308199870388206E-2   -9.581630590388702       1.463120869292972E-1
 2.787044148617274E4    -9.587590347891540       1.125485384580955E-1   -3.538448571298687      -5.877196453731412E-2   -3.533792670713196      -3.527777258506274E-2   -9.576494343952502       1.507265511544140E-1
 2.820459965147958E4    -9.582585404276481       1.089435812833793E-1   -3.537256030308092      -2.952094961975689E-2   -3.533594551656644      -4.267100845253906E-2   -9.579630137815206       1.593152094770774E-1
 2.854276427213793E4    -9.582033782868407       1.421959166627703E-1   -3.536769942670001      -3.453547921624246E-2   -3.531933555088085      -3.326351637694416E-2   -9.576066569492070       1.262854776221308E-1
 2.888498338433582E4    -9.579182712093665       1.214748148792460E-1   -3.536412425032360      -4.832364377279381E-2   -3.534249582880817      -2.865023300827148E-2   -9.572286793591534       1.471088340813533E-1
 2.923130560020086E4    -9.578401162577029       1.371587683044911E-1   -3.536092846563790      -1.678913012687839E-2   -3.535234786535853      -3.094297205924717E-2   -9.576883721103012       1.798854263282927E-1
