#  HZ   S   DB   R     50.00 
! Rohde & Schwarz Vector Network Analyzer 
! Rohde-Schwarz,ZNB8-4Port,1334333044101560,3.32
! Created: UTC 3/21/2023, 5:11:47 PM
! freq[Hz]                db:S11                  ang:S11
 1.000000000000000E4    -9.035898178103080E-1   -2.884589423888422E-1
 1.011989697596740E4    -8.977337135048596E-1   -3.074826274501804E-1
 1.024123148041938E4    -8.907098786708444E-1   -2.487015248727834E-1
 1.036402074888782E4    -8.852344260967721E-1   -2.371321224111078E-1
 1.048828222355332E4    -8.833984069458292E-1   -2.781791664243595E-1
 1.061403355572299E4    -8.858730777558922E-1   -2.417835035422964E-1
 1.074129260833773E4    -8.877082988999594E-1   -2.307086189792937E-1
 1.087007745850980E4    -8.916177779111290E-1   -2.695241770308509E-1
 1.100040640009047E4    -8.879340434224983E-1   -2.634907268079959E-1
 1.113229794626877E4    -8.863751785040059E-1   -2.088263673384647E-1
 1.126577083220134E4    -8.833728516519962E-1   -2.482418532059514E-1
 1.140084401767360E4    -8.855830190374301E-1   -2.381525170560147E-1
 1.153753668979311E4    -8.883734425598827E-1   -2.211605855610559E-1
 1.167586826571499E4    -8.898046910406910E-1   -1.863306003778814E-1
 1.181585839540028E4    -8.911342520144554E-1   -2.178399489591130E-1
 1.195752696440703E4    -8.888071221578620E-1   -2.068334664916588E-1
 1.210089409671510E4    -8.887025603833327E-1   -1.915515099344892E-1
 1.224598015758489E4    -8.902995908513146E-1   -1.823078153146819E-1
 1.239280575645001E4    -8.894396012157575E-1   -1.816442598066548E-1
 1.254139174984498E4    -8.889145362596287E-1   -1.911672122073966E-1
 1.269175924436784E4    -8.930578164014846E-1   -1.721745651821684E-1
 1.284392959967844E4    -8.930586367161679E-1   -1.931433346250765E-1
 1.299792443153239E4    -8.874064680750888E-1   -1.722059150816931E-1
 1.315376561485171E4    -8.932963962292517E-1   -1.189977652717273E-1
 1.331147528683218E4    -8.918262586091139E-1   -1.394420615999085E-1
 1.347107585008777E4    -8.855900866441995E-1   -1.852900711323591E-1
 1.363258997583304E4    -8.938113063100324E-1   -1.558321484083064E-1
 1.379604060710362E4    -8.899625665741475E-1   -1.213171110755609E-1
 1.396145096201513E4    -8.954243392260963E-1   -1.161529891836913E-1
 1.412884453706141E4    -8.895918452331961E-1   -1.525232057666935E-1
 1.429824511045209E4    -8.949104305850618E-1   -1.280191264646668E-1
 1.446967674549047E4    -8.958971606236056E-1   -1.280712034938827E-1
 1.464316379399148E4    -8.949394904171650E-1   -1.605118949661978E-1
 1.481873089974093E4    -8.949952749770153E-1   -1.347396321501186E-1
 1.499640300199629E4    -8.930818630184449E-1   -1.330119673083739E-1
 1.517620533902906E4    -8.933166724349512E-1   -1.222825896923453E-1
 1.535816345171005E4    -8.999705313142975E-1   -1.267262476144197E-1
 1.554230318713732E4    -8.935610332064513E-1   -1.126085343823601E-1
 1.572865070230794E4    -8.931909416320140E-1   -1.070934187567920E-1
 1.591723246783336E4    -8.945001564952820E-1   -1.143507505527937E-1
 1.610807527169965E4    -8.974818551760749E-1   -1.220752504772935E-1
 1.630120622307285E4    -8.931320770727381E-1   -9.017543166863830E-2
 1.649665275614959E4    -8.970983385878795E-1   -9.190596177307817E-2
 1.669444263405424E4    -8.973558666563848E-1   -9.834673369636809E-2
 1.689460395278264E4    -8.930491767183325E-1   -8.498230570842349E-2
 1.709716514519318E4    -8.983609725497272E-1   -6.837276047783751E-2
 1.730215498504557E4    -8.955700032066749E-1   -7.545055381353587E-2
 1.750960259108815E4    -8.956506791628360E-1   -7.925233204186977E-2
 1.771953743119439E4    -8.923361452008143E-1   -8.535884224189481E-2
 1.793198932654852E4    -8.954842146215505E-1   -7.595185451077091E-2
 1.814698845588179E4    -8.960806642297642E-1   -9.298117886124875E-2
 1.836456535975930E4    -8.964451999610789E-1   -5.403622808004555E-2
 1.858475094491838E4    -8.959359426873024E-1   -6.236923042412349E-2
 1.880757648865867E4    -8.999128258169654E-1   -5.327135145248182E-2
 1.903307364328520E4    -8.966733322010821E-1   -6.424862886099696E-2
 1.926127444060467E4    -8.961737808414239E-1   -6.431756357259151E-2
 1.949221129647533E4    -8.953123044395962E-1   -5.039070028502744E-2
 1.972591701541182E4    -8.994422595729622E-1   -7.089600550488494E-2
 1.996242479524495E4    -8.989678524208843E-1   -4.678685557755791E-2
 2.020176823183760E4    -8.935513573256657E-1   -5.192959579348556E-2
 2.044398132385675E4    -8.980263292937040E-1   -4.622944517565464E-2
 2.068909847760314E4    -8.976851315827793E-1   -1.604107052310509E-2
 2.093715451189877E4    -8.993454779240664E-1   -3.941214169602026E-2
 2.118818466303265E4    -8.936898834134870E-1   -3.329455228861618E-2
 2.144222458976629E4    -8.970252437322219E-1   -2.757348514833913E-2
 2.169931037839892E4    -8.955153860107137E-1   -1.931896495179279E-2
 2.195947854789372E4    -8.990898850396957E-1   -7.746811112289418E-3
 2.222276605506506E4    -8.998975023153021E-1    1.626141097605705E-3
 2.248921029982833E4    -8.955764547590359E-1   -7.233058910921820E-3
 2.275884913051276E4    -8.980357597593180E-1   -3.312824146219481E-2
 2.303172084923743E4    -8.938732903099045E-1   -1.764447075570639E-3
 2.330786421735231E4    -8.974640665292801E-1   -4.829967035254634E-3
 2.358731846094418E4    -8.955513270386670E-1   -1.692279863451672E-2
 2.387012327640890E4    -8.985398981282704E-1   -1.311754446249241E-2
 2.415631883608994E4    -8.951144794297449E-1    7.916921946180409E-3
 2.444594579398503E4    -8.938168309138305E-1    1.325302368338585E-2
 2.473904529152120E4    -8.955258866004505E-1    1.031542224611698E-3
 2.503565896339859E4    -8.958217889286086E-1    7.169949712766165E-3
 2.533582894350484E4    -8.958755006182928E-1   -6.975996550453197E-3
 2.563959787090014E4    -8.946325255968924E-1   -6.461280380989216E-3
 2.594700889587424E4    -8.957778584453773E-1    2.239618096681227E-2
 2.625810568607569E4    -8.947217949880015E-1    1.139057615343440E-2
 2.657293243271491E4    -8.928790039695795E-1    1.246415242012497E-2
 2.689153385684176E4    -8.933249827066672E-1    4.863180499870669E-3
 2.721395521569778E4    -8.922450797835352E-1    3.246564257611839E-2
 2.754024230914521E4    -8.923356316340167E-1    2.156769058490848E-2
 2.787044148617274E4    -8.939754435872743E-1    3.613383049451001E-2
 2.820459965147958E4    -8.937747658657136E-1    4.666135832965891E-2
 2.854276427213793E4    -8.939129797978851E-1    2.251826155217065E-2
 2.888498338433582E4    -8.913120085492268E-1    3.767583485108102E-2
 2.923130560020086E4    -8.926080754438774E-1    3.680989416615799E-2
 2.958178011470515E4    -8.893027326660886E-1    2.272696352300816E-2
 2.993645671265371E4    -8.906007628442885E-1    4.611736699713725E-2
 3.029538577575626E4    -8.903640234170718E-1    4.884771864915260E-2
 3.065861828978415E4    -8.913736324478455E-1    5.336438012914653E-2
 3.102620585181253E4    -8.912145985496155E-1    3.499221587326941E-2
 3.139820067754989E4    -8.919570787215596E-1    4.701210054149431E-2
 3.177465560875546E4    -8.901469621634734E-1    4.897310915645052E-2
 3.215562412074499E4    -8.880767103735444E-1    4.095484332243610E-2
 3.254116032998715E4    -8.899531402949085E-1    4.762753927989321E-2
 3.293131900179065E4    -8.878680467338708E-1    3.381584797267803E-2
 3.332615555808388E4    -8.891659573826356E-1    5.184024846187346E-2
 3.372572608528721E4    -8.896579712307608E-1    4.268780888279284E-2
 3.413008734228021E4    -8.904193738312041E-1    4.638426435564368E-2
 3.453929676846447E4    -8.886564505659322E-1    4.773001433290195E-2
 3.495341249192241E4    -8.875022039026527E-1    5.766723138054815E-2
 3.537249333767466E4    -8.875818193203320E-1    6.551709920721548E-2
 3.579659883603599E4    -8.876550071856975E-1    4.908932828936680E-2
 3.622578923107187E4    -8.886979693164758E-1    5.369427919802742E-2
 3.666012548915565E4    -8.878783106300907E-1    6.330021185292721E-2
 3.709966930762908E4    -8.868982805177346E-1    5.448841092115164E-2
 3.754448312356659E4    -8.882639443016721E-1    5.638852996311514E-2
 3.799463012264405E4    -8.877833070272640E-1    6.220705907131357E-2
 3.845017424811453E4    -8.859973634109802E-1    4.540044460540008E-2
 3.891118020989129E4    -8.848343093086930E-1    6.563902076966344E-2
 3.937771349374013E4    -8.865518302447738E-1    5.720922531685325E-2
 3.984984037058112E4    -8.858113618906345E-1    6.785911372631734E-2
 4.032762790590266E4    -8.845446532634192E-1    5.415933093100170E-2
 4.081114396928827E4    -8.845941824267683E-1    5.557501788873773E-2
 4.130045724405704E4    -8.844012505301996E-1    5.685063418652175E-2
 4.179563723702028E4    -8.848357962005076E-1    6.006519521568874E-2
 4.229675428835518E4    -8.843762560075903E-1    5.016018451968596E-2
 4.280387958159616E4    -8.855875424411077E-1    6.345979806038431E-2
 4.331708515374676E4    -8.834240671488818E-1    5.934042628942570E-2
 4.383644390551231E4    -8.841158161650227E-1    5.116299816749727E-2
 4.436202961165585E4    -8.839152131020289E-1    5.169231958085260E-2
 4.489391693147722E4    -8.805046523417899E-1    4.908733202008975E-2
 4.543218141941869E4    -8.823508272501041E-1    6.743713850358153E-2
 4.597689953579773E4    -8.810710778887277E-1    6.949383947772762E-2
 4.652814865766763E4    -8.802548769761211E-1    6.071492433854305E-2
 4.708600708980911E4    -8.830734641399687E-1    7.128086699748266E-2
 4.765055407585386E4    -8.804676422670452E-1    6.875128552609047E-2
 4.822186980954044E4    -8.812627287365435E-1    7.024260501993157E-2
 4.880003544610618E4    -8.813547331137037E-1    6.627853355692463E-2
 4.938513311381507E4    -8.810995085251327E-1    5.986188514340236E-2
 4.997724592562445E4    -8.816435396712330E-1    6.803692831349913E-2
 5.057645799099057E4    -8.804176996156089E-1    6.006434287113988E-2
 5.118285442781665E4    -8.809089403341199E-1    5.899678375470972E-2
 5.179652137454412E4    -8.797522346590685E-1    5.212676772131939E-2
 5.241754600238797E4    -8.801441547103167E-1    5.523319874228537E-2
 5.304601652771980E4    -8.788585491478786E-1    7.339883016493082E-2
 5.368202222459870E4    -8.787149917143017E-1    5.240994055714331E-2
 5.432565343745310E4    -8.796499916247852E-1    6.201730078185852E-2
 5.497700159391344E4    -8.785201661436026E-1    5.815157045226407E-2
 5.563615921779982E4    -8.787674900523994E-1    6.305687931318020E-2
 5.630321994226530E4    -8.784844958455490E-1    5.973162890950743E-2
 5.697827852309579E4    -8.789875927435697E-1    6.453533489633040E-2
 5.766143085217051E4    -8.784582602786730E-1    5.528194938158557E-2
 5.835277397108323E4    -8.780774402267039E-1    6.368961731237380E-2
 5.905240608492742E4    -8.779591889514227E-1    5.385176939225377E-2
 5.976042657624557E4    -8.780825487447946E-1    5.031132441832415E-2
 6.047693601914679E4    -8.781974898288319E-1    4.163966882786384E-2
 6.120203619359374E4    -8.776110845521010E-1    6.074361048669939E-2
 6.193583009985965E4    -8.776831269122261E-1    6.751336283268736E-2
 6.267842197316001E4    -8.779502649714942E-1    6.321384637934725E-2
 6.342991729845891E4    -8.781193902139496E-1    5.174001834278633E-2
 6.419042282545364E4    -8.776514043308230E-1    6.089601230781237E-2
 6.496004658373768E4    -8.769153798556427E-1    4.330230928192716E-2
 6.573889789814668E4    -8.763395429827713E-1    4.178836347169169E-2
 6.652708740428841E4    -8.764419508424912E-1    5.586797831924049E-2
 6.732472706425769E4    -8.783453227878693E-1    5.795448294425892E-2
 6.813193018254118E4    -8.766638250969065E-1    4.755655702515641E-2
 6.894881142211189E4    -8.769183023294580E-1    5.365861000094974E-2
 6.977548682071763E4    -8.771242868788208E-1    5.040166421541399E-2
 7.061207380736334E4    -8.749086158887138E-1    5.538385125490858E-2
 7.145869121899214E4    -8.765024753393219E-1    5.477013302926090E-2
 7.231545931736665E4    -8.767110825481516E-1    4.975784276166994E-2
 7.318249980615120E4    -8.752344635283265E-1    5.308984656510500E-2
 7.405993584820042E4    -8.761589772427090E-1    4.641937398661339E-2
 7.494789208305413E4    -8.753542788029811E-1    5.122766238435037E-2
 7.584649464464303E4    -8.750409065859130E-1    4.971752073729042E-2
 7.675587117920503E4    -8.761127794564509E-1    4.599390662073467E-2
 7.767615086341785E4    -8.747189367229369E-1    3.963166406111026E-2
 7.860746442274896E4    -8.745080348719797E-1    5.443582613135957E-2
 7.954994415002420E4    -8.736748146408063E-1    4.142872325720053E-2
 8.050372392422051E4    -8.741358582634845E-1    5.220573216913246E-2
 8.146893922948316E4    -8.753693778915511E-1    4.957871569549983E-2
 8.244572717437183E4    -8.746437156249718E-1    4.791898536153087E-2
 8.343422651133584E4    -8.739018327566834E-1    4.097480948166166E-2
 8.443457765642447E4    -8.744293347679073E-1    3.758530845884390E-2
 8.544692270923343E4    -8.743385325581561E-1    4.394275796290914E-2
 8.647140547308912E4    -8.751626806874212E-1    3.269332681073397E-2
 8.750817147547653E4    -8.735694505425469E-1    4.251429553554660E-2
 8.855736798871095E4    -8.759644885701381E-1    4.911910612441839E-2
 8.961914405085878E4    -8.727639821208355E-1    4.898523784740384E-2
 9.069365048690724E4    -8.746676459020484E-1    3.601050433188770E-2
 9.178103993018946E4    -8.736316913967730E-1    4.408776356926369E-2
 9.288146684406673E4    -8.741250311105000E-1    3.614990503478203E-2
 9.399508754386869E4    -8.720936327358508E-1    4.412414890668778E-2
 9.512206021909874E4    -8.723938436222328E-1    4.399009966405022E-2
 9.626254495590441E4    -8.733803660710333E-1    4.091385983256274E-2
 9.741670375981825E4    -8.745946702020841E-1    4.800741223230883E-2
 9.858470057876965E4    -8.732480007818280E-1    4.050016304161045E-2
 9.976670132637402E4    -8.746838982113117E-1    3.603024265252827E-2
 1.009628739055015E5    -8.740317319803597E-1    4.214014689260111E-2
 1.021733882321262E5    -8.723519960849579E-1    3.680109080988512E-2
 1.033984162594637E5    -8.732269422337726E-1    4.792633912603043E-2
 1.046381320023962E5    -8.738524503472003E-1    5.072795793961520E-2
 1.058927115621927E5    -8.735532226249767E-1    3.564926498943188E-2
 1.071623331515222E5    -8.735702265857719E-1    3.127819776491873E-2
 1.084471771197698E5    -8.730111977756555E-1    3.513631467592248E-2
 1.097474259786559E5    -8.738042835341449E-1    3.832225732971396E-2
 1.110632644281605E5    -8.732468999740415E-1    2.717300182717499E-2
 1.123948793827609E5    -8.717254228632272E-1    2.878677758065756E-2
 1.137424599979820E5    -8.730576574708819E-1    4.462269971744538E-2
 1.151061976972671E5    -8.729578217301031E-1    2.313325623272408E-2
 1.164862861991679E5    -8.731879307010866E-1    3.577531491146835E-2
 1.178829215448629E5    -8.720415172719649E-1    3.274433640422793E-2
 1.192963021260060E5    -8.721435787453644E-1    3.271928351989013E-2
 1.207266287129061E5    -8.727142340086178E-1    3.098803639330412E-2
 1.221741044830477E5    -8.723524605907789E-1    2.877157781663084E-2
 1.236389350499517E5    -8.725610453554761E-1    3.110521866689750E-2
 1.251213284923835E5    -8.719496469891853E-1    3.436800865009881E-2
 1.266214953839095E5    -8.737606820639818E-1    3.006508758979438E-2
 1.281396488228093E5    -8.724692800873851E-1    2.476678083145144E-2
 1.296760044623472E5    -8.732192655677624E-1    3.011809282058762E-2
 1.312307805414042E5    -8.727216901565693E-1    3.336481453328721E-2
 1.328041979154798E5    -8.726045260514455E-1    3.368813899460914E-2
 1.343964800880637E5    -8.726984824356320E-1    2.812402656464155E-2
 1.360078532423858E5    -8.730081855434246E-1    2.538312369339700E-2
 1.376385462735435E5    -8.732443200709661E-1    2.804504188981847E-2
 1.392887908210181E5    -8.732673365593852E-1    3.086661475946401E-2
 1.409588213015776E5    -8.718887468277359E-1    3.014819162928172E-2
 1.426488749425764E5    -8.728332456049146E-1    2.585778136602425E-2
 1.443591918156531E5    -8.736665706939526E-1    2.731173822087243E-2
 1.460900148708322E5    -8.728848749473261E-1    2.898514508653992E-2
 1.478415899710367E5    -8.729565297199270E-1    2.405427972004850E-2
 1.496141659270102E5    -8.721461296281318E-1    3.740127530237929E-2
 1.514079945326635E5    -8.722054203156059E-1    3.511490348467831E-2
 1.532233306008390E5    -8.723211811164845E-1    2.351137436321133E-2
 1.550604319995083E5    -8.728455807465640E-1    2.683821002481945E-2
 1.569195596884022E5    -8.721172549882839E-1    2.662995988038796E-2
 1.588009777560794E5    -8.715952503835499E-1    3.194009752765627E-2
 1.607049534574414E5    -8.719264850665130E-1    2.322932089750216E-2
 1.626317572516939E5    -8.722565284521582E-1    2.327188407691196E-2
 1.645816628407681E5    -8.724548387531965E-1    3.319634308235223E-2
 1.665549472081974E5    -8.725522761670966E-1    2.608783391725070E-2
 1.685518906584647E5    -8.714728327182333E-1    2.684802031334019E-2
 1.705727768568184E5    -8.731329042707072E-1    2.947420943010575E-2
 1.726178928695674E5    -8.723508707321649E-1    2.693035069858611E-2
 1.746875292048600E5    -8.709413589486116E-1    2.803471296977698E-2
 1.767819798539475E5    -8.716066383229966E-1    1.733483799194318E-2
 1.789015423329493E5    -8.716319067355163E-1    2.901826714053084E-2
 1.810465177251116E5    -8.708952300661109E-1    2.176524959828336E-2
 1.832172107235785E5    -8.717887564527576E-1    2.528794293930170E-2
 1.854139296746723E5    -8.723210890627259E-1    2.516386801502228E-2
 1.876369866216944E5    -8.724826051590163E-1    2.049897990587780E-2
 1.898866973492520E5    -8.712159968839792E-1    2.860245969262341E-2
 1.921633814281128E5    -8.709767884623090E-1    2.470985534803810E-2
 1.944673622606028E5    -8.715736722892762E-1    1.711999857835074E-2
 1.967989671265431E5    -8.706061814392764E-1    2.831832274914130E-2
 1.991585272297410E5    -8.708569699703357E-1    2.111271911034648E-2
 2.015463777450377E5    -8.711402248733747E-1    1.899986089799684E-2
 2.039628578659185E5    -8.715533758829932E-1    1.924135045791896E-2
 2.064083108526977E5    -8.709431353832153E-1    1.847414530757449E-2
 2.088830840812749E5    -8.715755415999409E-1    1.590380498315162E-2
 2.113875290924837E5    -8.711097341370057E-1    2.082636749432335E-2
 2.139220016420246E5    -8.704788371108164E-1    1.530054667613120E-2
 2.164868617510018E5    -8.724762446155381E-1    1.718104759671626E-2
 2.190824737570634E5    -8.716066943416392E-1    1.442547717314834E-2
 2.217092063661558E5    -8.709272594137675E-1    1.910447063281252E-2
 2.243674327048992E5    -8.705690570921878E-1    1.683472803108587E-2
 2.270575303735873E5    -8.722011975411510E-1    1.633999554633195E-2
 2.297798814998292E5    -8.711594408058293E-1    1.594641447060842E-2
 2.325348727928268E5    -8.717906454472393E-1    2.260804768961421E-2
 2.353228955983091E5    -8.717727860639757E-1    1.086392142506599E-2
 2.381443459541215E5    -8.705371323254073E-1    1.701965407862700E-2
 2.409996246464848E5    -8.712009081793514E-1    1.062896328311469E-2
 2.438891372669239E5    -8.715712859251644E-1    1.923696943930690E-2
 2.468132942698835E5    -8.712054431458995E-1    1.407055062574493E-2
 2.497725110310345E5    -8.721219411950394E-1    1.533504068766282E-2
 2.527672079062750E5    -8.710758288340091E-1    1.899545314028749E-2
 2.557978102914435E5    -8.712685438337952E-1    1.480741710546312E-2
 2.588647486827455E5    -8.717982416871075E-1    1.336108406356997E-2
 2.619684587379076E5    -8.713107055649476E-1    1.604077971794302E-2
 2.651093813380591E5    -8.715263654870558E-1    8.118140674935166E-3
 2.682879626503607E5    -8.722943633627050E-1    1.505160015451201E-2
 2.715046541913839E5    -8.711191169871902E-1    1.140170575795215E-2
 2.747599128912459E5    -8.721073267138173E-1    1.614010426540965E-2
 2.780542011585185E5    -8.715926434184218E-1    1.128791565136692E-2
 2.813879869459116E5    -8.725488470150997E-1    1.387955149874786E-2
 2.847617438167484E5    -8.704838419594229E-1    9.944503486241813E-3
