#  HZ   S   DB   R     50.00 
! Rohde & Schwarz Vector Network Analyzer 
! Rohde-Schwarz,ZNB8-4Port,1334333044101560,3.32
! Created: UTC 3/21/2023, 5:15:46 PM
! freq[Hz]                db:S11                  ang:S11                 db:S41                  ang:S41                 db:S14                  ang:S14                 db:S44                  ang:S44
 1.000000000000000E4    -5.336065336977049E1     4.829375602042617E1     2.739356846543702E-3   -3.573059916180090E-1    5.053252232538053E-3   -3.194630105642527E-1   -5.465979996884979E1     5.390369180797349E1
 1.011989697596740E4    -5.363992327560617E1     3.304091563545966E1     3.195268404344158E-3   -3.712371689680916E-1    6.095864366766218E-3   -3.444874638259763E-1   -5.941223582101288E1     3.313847292676883E1
 1.024123148041938E4    -5.831798333229962E1     4.251147148173968E1     3.769270663920002E-4   -4.125366286144557E-1    6.184374374260718E-3   -3.272518906871308E-1   -5.486331140792440E1     3.006583674617522E1
 1.036402074888782E4    -5.450987167872250E1     5.740021447428602E1    -2.232732602976701E-3   -3.901765767245503E-1    3.204674082917987E-4   -3.480225891254636E-1   -5.837633477573569E1     5.306263860388861E1
 1.048828222355332E4    -5.332307843412792E1     3.933531902201668E1     2.345758570199741E-3   -3.524776904229772E-1    3.949506976010850E-3   -3.214723065231520E-1   -5.707503791387551E1     3.311559386866619E1
 1.061403355572299E4    -5.568473584920491E1     5.489823056376814E1     4.075078474113699E-4   -3.741731327091731E-1    1.735271658769497E-3   -3.159244810417355E-1   -5.582096644834108E1     4.234263419894204E1
 1.074129260833773E4    -5.712868538158610E1     4.631285865506874E1    -1.963909045942983E-4   -3.759832963663856E-1    8.009135871029982E-4   -3.030920033283636E-1   -5.623684059089700E1     5.085154808776581E1
 1.087007745850980E4    -5.476247769673449E1     6.057918174197438E1     4.834866336311618E-4   -3.762381772016914E-1    5.062566052661322E-3   -3.366989871049288E-1   -5.769343519450304E1     4.021230013874120E1
 1.100040640009047E4    -5.784119236130572E1     4.464146642786038E1     2.331018650476047E-3   -3.912488379893928E-1    5.294496367983989E-4   -3.345267773641344E-1   -5.769518410092439E1     4.877825733096182E1
 1.113229794626877E4    -5.611187417039542E1     3.741434208117540E1    -6.990851134328173E-4   -3.520665724397241E-1   -1.271037188858562E-4   -3.382156114432956E-1   -6.241950947587186E1     8.080654749379583E1
 1.126577083220134E4    -5.515490735332008E1     5.103189101364558E1    -1.568757110816227E-3   -3.666920313376053E-1    3.431737487486700E-3   -3.396317810921448E-1   -6.420996611115525E1     3.451346211825206E1
 1.140084401767360E4    -5.624922760102745E1     6.275719839925689E1    -5.225447231087663E-3   -3.619413107463877E-1   -2.604051086234375E-3   -3.325209877952663E-1   -5.937668821785073E1     5.105941450270979E1
 1.153753668979311E4    -5.707688570656117E1     7.574559711642345E1    -4.741100240997389E-3   -3.908147842319972E-1    1.250794804662101E-3   -3.075840414381980E-1   -5.936626327390552E1     3.737062202089407E1
 1.167586826571499E4    -5.671801859354246E1     5.013382534678092E1    -3.882191144583895E-3   -3.585081364554403E-1    1.130581672249480E-3   -3.279802058626520E-1   -6.154085926452311E1     5.641044998890798E1
 1.181585839540028E4    -5.598203790990873E1     6.704602359267196E1    -3.172408666579352E-3   -3.319548904917576E-1   -2.659370293127685E-3   -3.184610826796815E-1   -6.234168994266876E1     5.242007160787671E1
 1.195752696440703E4    -5.615072954583216E1     7.378472733947989E1    -5.533138525031796E-3   -3.541102506568838E-1    1.385847905144738E-3   -3.112238788496258E-1   -5.943927619316845E1     4.970766587698498E1
 1.210089409671510E4    -5.507374357576136E1     7.144980130481619E1    -5.145540606018135E-3   -3.158924641320684E-1    1.497714951856176E-4   -3.144051951299961E-1   -6.198198209744487E1     7.488826322257236E1
 1.224598015758489E4    -6.011889317845564E1     6.428369579458605E1    -9.871809376564764E-4   -3.401205782348828E-1   -1.520369550739888E-3   -3.347501021981730E-1   -6.101616971125830E1     6.017352370805914E1
 1.239280575645001E4    -5.738403482953694E1     7.242555874663756E1    -6.453987959001571E-3   -3.328699142797126E-1   -5.508533725798160E-3   -2.914409832167727E-1   -5.719771337524521E1     8.441058173510811E1
 1.254139174984498E4    -5.916765713873964E1     6.374493314766116E1    -3.919415348797984E-3   -3.611270176460344E-1   -5.988490834827165E-3   -3.248001525126018E-1   -6.022520679490579E1     9.135833668665745E1
 1.269175924436784E4    -5.648215926897792E1     7.661602883216023E1    -9.502702807542295E-3   -3.376200899328572E-1   -3.590293518955850E-3   -3.169075282739425E-1   -6.750128157851046E1     8.029764855868370E1
 1.284392959967844E4    -5.767607283974157E1     7.274497328969692E1    -8.142329796039984E-3   -3.245562857284027E-1   -6.662401427040281E-3   -3.070098934586097E-1   -5.953267230778525E1     8.794072938591039E1
 1.299792443153239E4    -5.687282466114340E1     8.518293073559943E1    -7.617226813707875E-3   -3.388480627506625E-1   -2.668784489844302E-3   -2.905289176210352E-1   -5.997560663829096E1     9.078591027507645E1
 1.315376561485171E4    -5.813210794311750E1     7.446625468800937E1    -1.066092858981526E-2   -3.231552741000982E-1   -2.876328782783232E-3   -3.205386250194041E-1   -6.443238870172988E1     7.833144464342701E1
 1.331147528683218E4    -5.745233197126872E1     8.334730645571672E1    -1.101165013663589E-2   -3.181024046452274E-1   -4.587924098656448E-3   -3.077129074233976E-1   -6.209034143084207E1     7.590638011530540E1
 1.347107585008777E4    -5.775139907618274E1     8.608564590350430E1    -1.236668807743827E-2   -3.270698831259242E-1   -8.229270127879629E-3   -2.799912132351041E-1   -6.182386146691515E1     9.504888707410369E1
 1.363258997583304E4    -5.742503377979412E1     8.925894003105321E1    -1.184898425099626E-2   -3.025318413484289E-1   -6.018721691761810E-3   -2.823858872642950E-1   -6.125786268683093E1     1.042883324374902E2
 1.379604060710362E4    -6.242971470257498E1     7.336860840577492E1    -1.001303464282696E-2   -3.337115448595678E-1   -7.694938196058199E-3   -3.065593814563938E-1   -6.034320569376642E1     1.228697694627343E2
 1.396145096201513E4    -5.712798251939706E1     8.097747660616582E1    -9.773152786463101E-3   -2.913152064273313E-1   -5.655194909669156E-3   -2.994336275383491E-1   -6.049499374516294E1     1.084107141844864E2
 1.412884453706141E4    -5.713237661101685E1     9.728906746170378E1    -1.104765885918834E-2   -3.054813056772916E-1   -8.300467034232088E-3   -2.918960295309130E-1   -5.986224256902184E1     1.059506341838475E2
 1.429824511045209E4    -5.695339753844973E1     1.026314752480287E2    -1.123991392791076E-2   -3.072764071759036E-1   -1.149268529664323E-2   -2.994079031247744E-1   -5.903089450374696E1     1.156749218328078E2
 1.446967674549047E4    -5.651803391190904E1     9.844738346230010E1    -1.347708298605138E-2   -3.033972787773486E-1   -7.452862007424186E-3   -2.803054605182860E-1   -5.899038127765782E1     1.074957136005423E2
 1.464316379399148E4    -5.805814897330309E1     9.753473162304572E1    -1.105214908330449E-2   -2.847463244860194E-1   -8.135026818158761E-3   -2.887005105519033E-1   -5.860657055028965E1     1.197815907231888E2
 1.481873089974093E4    -5.756203614279278E1     9.200654102975352E1    -1.312566690472052E-2   -2.778869112182303E-1   -8.982529617144328E-3   -2.817418416399549E-1   -5.945194796706384E1     1.136582380484770E2
 1.499640300199629E4    -5.672068618407317E1     9.417982353065538E1    -1.221567815705673E-2   -2.891550224572373E-1   -9.612142806549043E-3   -2.746687147746348E-1   -5.656505295231323E1     1.167370776987732E2
 1.517620533902906E4    -5.942103673965743E1     9.604282471358229E1    -1.139536610726299E-2   -2.756559466707045E-1   -1.025185218919226E-2   -2.556437270046985E-1   -5.807121932306632E1     1.060864617944349E2
 1.535816345171005E4    -5.729020239418674E1     1.060873294325761E2    -1.226861450260116E-2   -2.877728929180782E-1   -7.767582393338439E-3   -2.407610120719497E-1   -6.020990901994707E1     1.027799368241044E2
 1.554230318713732E4    -5.687367582328176E1     1.078755870847075E2    -1.142785899858438E-2   -2.929929874850015E-1   -9.727528660352749E-3   -2.471064874359593E-1   -5.828266489104593E1     1.071157436562050E2
 1.572865070230794E4    -5.743790726347753E1     1.143534939435866E2    -1.508413736252432E-2   -2.835503097348220E-1   -1.147605185305555E-2   -2.782239398965856E-1   -5.800321909459061E1     1.218526945784042E2
 1.591723246783336E4    -5.545592245190492E1     1.084661916212491E2    -1.510457507109759E-2   -2.729529730703395E-1   -1.066971825242503E-2   -2.492221542956349E-1   -5.993137650828898E1     1.146645521780550E2
 1.610807527169965E4    -5.532543880363142E1     1.157927988851820E2    -1.599439737131124E-2   -2.773261360388113E-1   -1.095665744488871E-2   -2.697215113857993E-1   -5.886970914506047E1     1.280548384203813E2
 1.630120622307285E4    -5.556300875304230E1     1.092115474207883E2    -1.503935591119797E-2   -2.735098858306074E-1   -1.053706181476220E-2   -2.456786971855349E-1   -5.671650806618442E1     1.138832816976165E2
 1.649665275614959E4    -5.774351272130349E1     1.210647746246653E2    -1.389710391730364E-2   -2.735522736994965E-1   -1.066320469408195E-2   -2.430983994687584E-1   -5.699347301143482E1     1.122065085598513E2
 1.669444263405424E4    -5.662210188283340E1     1.192764430179233E2    -1.584427730879395E-2   -2.610439291780249E-1   -1.014178804093365E-2   -2.326279489346125E-1   -5.650111098692711E1     1.062861437296545E2
 1.689460395278264E4    -5.736917549979868E1     1.154131457396378E2    -1.527480205146301E-2   -2.629751194216763E-1   -1.259840115085684E-2   -2.441091162927257E-1   -5.596503164280482E1     1.244851226642269E2
 1.709716514519318E4    -5.708110499594471E1     1.097031058110136E2    -1.719429253476665E-2   -2.651030554790674E-1   -1.183531104679374E-2   -2.398313158108639E-1   -5.740081535717956E1     1.247102275307718E2
 1.730215498504557E4    -5.596007637781256E1     1.132124964836131E2    -1.813473716533082E-2   -2.584646589357493E-1   -1.539457121617470E-2   -2.338629101130411E-1   -5.596558782622446E1     1.190202387962018E2
 1.750960259108815E4    -5.644501738715662E1     1.154569737037114E2    -1.481086418442943E-2   -2.445457658590908E-1   -1.309064860664112E-2   -2.187438296626102E-1   -5.695381748253383E1     1.131817300530237E2
 1.771953743119439E4    -5.627479324305570E1     1.206321192531951E2    -1.748426006464000E-2   -2.560775871583946E-1   -1.319123576604861E-2   -2.396433669942193E-1   -5.554596072123815E1     1.265081458001319E2
 1.793198932654852E4    -5.574008279370513E1     1.227352790634878E2    -1.717926280747032E-2   -2.483639095524228E-1   -1.509340984080361E-2   -2.285482396782950E-1   -5.613112298330976E1     1.166971562550293E2
 1.814698845588179E4    -5.556684086292391E1     1.134999083989308E2    -1.529674253533080E-2   -2.381040132549014E-1   -1.317884864132991E-2   -2.208827356954035E-1   -5.598772301902522E1     1.106096452183266E2
 1.836456535975930E4    -5.488948643193816E1     1.177055889241224E2    -1.690242271560568E-2   -2.349906482262052E-1   -1.242825931112129E-2   -2.111591287547012E-1   -5.603790474166956E1     1.249876666690775E2
 1.858475094491838E4    -5.445195683481487E1     1.193939949877860E2    -1.892810625073887E-2   -2.317946752382180E-1   -1.481239101703922E-2   -2.145209430203114E-1   -5.598844027881849E1     1.213650622547379E2
 1.880757648865867E4    -5.435308801854956E1     1.148242081737002E2    -1.806385440981233E-2   -2.205776041023438E-1   -1.174193321288214E-2   -1.948165480779374E-1   -5.670445810378415E1     1.127094591108342E2
 1.903307364328520E4    -5.410375494153817E1     1.167996358670782E2    -1.999925080412503E-2   -2.272224339585835E-1   -1.543789650046378E-2   -2.029621167123213E-1   -5.559499158136901E1     1.165653019288360E2
 1.926127444060467E4    -5.475717209784132E1     1.116404723170989E2    -1.718385965291941E-2   -2.266291498151094E-1   -1.505605950325337E-2   -2.054009554679757E-1   -5.649189718904906E1     1.171425588431624E2
 1.949221129647533E4    -5.386080240955889E1     1.190820493703369E2    -2.064916900094466E-2   -2.162670315553356E-1   -1.844477705215832E-2   -1.852267762357185E-1   -5.381551258216462E1     1.156882470575989E2
 1.972591701541182E4    -5.545907008026774E1     1.185308003791353E2    -1.744815312504773E-2   -2.257358887975167E-1   -1.515562420269321E-2   -2.031086703884557E-1   -5.429817164482066E1     1.219172066639473E2
 1.996242479524495E4    -5.402351354501398E1     1.151620547028560E2    -1.891801392596768E-2   -2.097748016569558E-1   -1.514716762031540E-2   -1.926494060586102E-1   -5.491196775213254E1     1.157542088504500E2
 2.020176823183760E4    -5.423980724928195E1     1.147527900723075E2    -2.056075439050924E-2   -1.955957829363043E-1   -1.714625867338601E-2   -1.903396645384291E-1   -5.421767857252421E1     1.224192866877309E2
 2.044398132385675E4    -5.417577372054709E1     1.157157106764438E2    -1.594150817294161E-2   -2.035633392113178E-1   -1.668861212008018E-2   -1.832952260065566E-1   -5.402054535898269E1     1.178054396409515E2
 2.068909847760314E4    -5.472354757219171E1     1.231873035588885E2    -1.852758690543237E-2   -1.849003783713522E-1   -1.571771919884463E-2   -1.887464541708970E-1   -5.460084202424649E1     1.180959288982950E2
 2.093715451189877E4    -5.404893877041150E1     1.207226684932426E2    -1.971420890730805E-2   -2.013028464837430E-1   -1.507890663937606E-2   -1.747305136546670E-1   -5.531726051342352E1     1.223397666773491E2
 2.118818466303265E4    -5.384271401359258E1     1.132600829632153E2    -2.104726334871814E-2   -1.779717407411421E-1   -1.616843642124241E-2   -1.729537512006773E-1   -5.400106957371172E1     1.147983301218373E2
 2.144222458976629E4    -5.291487162845328E1     1.139270240307893E2    -1.953349252862617E-2   -1.898013234483198E-1   -1.630752633022767E-2   -1.653031213639738E-1   -5.393201098401619E1     1.126875257590485E2
 2.169931037839892E4    -5.320247956738754E1     1.188793652824559E2    -2.120769102481707E-2   -1.826111732742731E-1   -1.845534760401890E-2   -1.675487156529458E-1   -5.341735145589438E1     1.165472745581932E2
 2.195947854789372E4    -5.429961735427580E1     1.109287361109782E2    -1.766470780205387E-2   -1.755226829305564E-1   -1.646471510620814E-2   -1.607427745718053E-1   -5.399066780435876E1     1.119161577158263E2
 2.222276605506506E4    -5.427297755995424E1     1.115067518388152E2    -1.866097693071532E-2   -1.682269570086904E-1   -1.843538589155421E-2   -1.578304738875269E-1   -5.396884333998833E1     1.115458660042086E2
 2.248921029982833E4    -5.341274787715140E1     1.142604768411084E2    -2.093323591189393E-2   -1.746986364400022E-1   -1.663801692905044E-2   -1.534348246963955E-1   -5.394018161635142E1     1.109087230911074E2
 2.275884913051276E4    -5.333441295841489E1     1.172344757289311E2    -1.978717262219695E-2   -1.699808460229839E-1   -1.748884136426701E-2   -1.574241167579301E-1   -5.308797466131463E1     1.154569982811203E2
 2.303172084923743E4    -5.351799452239796E1     1.174238899774625E2    -2.231339128970133E-2   -1.771679382332927E-1   -1.499750617936045E-2   -1.561480109149929E-1   -5.360563339068491E1     1.184019432405668E2
 2.330786421735231E4    -5.354231142337446E1     1.201672365524191E2    -1.843049112656763E-2   -1.731689145779555E-1   -1.694569056277156E-2   -1.581908420512554E-1   -5.381025905302137E1     1.140153948085863E2
 2.358731846094418E4    -5.419613742640777E1     1.166471269728692E2    -1.843384343670553E-2   -1.603746241975653E-1   -1.655591328172330E-2   -1.425478778995029E-1   -5.375878528813188E1     1.132167219267529E2
 2.387012327640890E4    -5.336726916830854E1     1.155023823438653E2    -1.889107520342988E-2   -1.537429438191643E-1   -1.512106405284649E-2   -1.444893535737498E-1   -5.410396152411654E1     1.132388788239603E2
 2.415631883608994E4    -5.296414504594854E1     1.149429925927902E2    -1.882832731767265E-2   -1.527099241515621E-1   -1.657941903403433E-2   -1.427449704894791E-1   -5.300051859575446E1     1.138696103595134E2
 2.444594579398503E4    -5.357423459090705E1     1.125853810787816E2    -1.921522218791131E-2   -1.615240295608313E-1   -1.537014742352773E-2   -1.299494014035662E-1   -5.401786333894921E1     1.068726505366600E2
 2.473904529152120E4    -5.326041693861627E1     1.137388052223071E2    -1.897702083382965E-2   -1.517688488128745E-1   -1.569769945406066E-2   -1.354204705119349E-1   -5.331164390144988E1     1.136517105655801E2
 2.503565896339859E4    -5.257834869174259E1     1.120843734780633E2    -2.106152781870691E-2   -1.372881003568252E-1   -1.528918332137657E-2   -1.359873919648709E-1   -5.355827099404600E1     1.142694415050419E2
 2.533582894350484E4    -5.355167011769004E1     1.163340946096723E2    -1.792832279605032E-2   -1.457492166928094E-1   -1.685817560819574E-2   -1.289399391601195E-1   -5.255197395039453E1     1.065827565068445E2
 2.563959787090014E4    -5.335637666363831E1     1.101839607093303E2    -1.993657476942419E-2   -1.316237370716007E-1   -1.662969249598951E-2   -1.252317995385503E-1   -5.317886518202960E1     1.082242264290198E2
 2.594700889587424E4    -5.317853124788493E1     1.125917654227235E2    -1.875818538521514E-2   -1.391194573803297E-1   -1.653823407068428E-2   -1.247243991797152E-1   -5.298233488625024E1     1.083902609510343E2
 2.625810568607569E4    -5.291914947245310E1     1.054378993409177E2    -1.874691791812602E-2   -1.334362518991553E-1   -1.611646036371578E-2   -1.183204442161340E-1   -5.312195592005956E1     1.074794621884772E2
 2.657293243271491E4    -5.230762527253138E1     1.101473714083737E2    -1.947207948196388E-2   -1.276691369170592E-1   -1.421284997631298E-2   -1.178467665496179E-1   -5.360797194427906E1     1.095427619155995E2
 2.689153385684176E4    -5.288231695635919E1     1.076441159156341E2    -1.874607645717693E-2   -1.314394737725519E-1   -1.312564176491602E-2   -1.098793585372321E-1   -5.335136808539217E1     1.073855902714969E2
 2.721395521569778E4    -5.343979552180251E1     1.082401891222203E2    -1.781746264214566E-2   -1.272995048063578E-1   -1.720511076620033E-2   -1.166457631290855E-1   -5.264846443559254E1     1.056644336385176E2
 2.754024230914521E4    -5.317500735876486E1     1.105524579064017E2    -2.056033878704224E-2   -1.186591999086885E-1   -1.579611197087044E-2   -1.181205145045151E-1   -5.256499279656693E1     1.112786002701318E2
 2.787044148617274E4    -5.384842082956071E1     1.119018487290728E2    -1.857578408601486E-2   -1.252223587499945E-1   -1.490009997198259E-2   -1.110778902774744E-1   -5.271641598690230E1     1.095801078624608E2
 2.820459965147958E4    -5.222198386071250E1     1.092965479733088E2    -1.897038352697092E-2   -1.162209218377369E-1   -1.432756594681771E-2   -1.151423880351619E-1   -5.278327594345480E1     1.095820827091976E2
 2.854276427213793E4    -5.194252510246709E1     1.062689382067351E2    -1.857098036792441E-2   -1.081068760786734E-1   -1.503651159465677E-2   -1.109114091047381E-1   -5.282516775821801E1     1.052649934907150E2
 2.888498338433582E4    -5.250669405469143E1     1.074431154526461E2    -1.903393662466706E-2   -1.061906825875061E-1   -1.647199644311017E-2   -1.041472928607264E-1   -5.253028600424356E1     1.027061610805804E2
 2.923130560020086E4    -5.271769407373870E1     1.088472453287048E2    -1.844597023492343E-2   -1.131861937556099E-1   -1.613337670473977E-2   -1.079497080051487E-1   -5.296569225987606E1     1.087268089703987E2
 2.958178011470515E4    -5.258399643709693E1     1.107147524952031E2    -1.796695496174370E-2   -1.167669616105674E-1   -1.680165613114343E-2   -1.020427494729279E-1   -5.272563078113534E1     1.033508118480839E2
