#  HZ   S   DB   R     50.00 
! Rohde & Schwarz Vector Network Analyzer 
! Rohde-Schwarz,ZNB8-4Port,1334333044101560,3.32
! Created: UTC 3/21/2023, 5:18:38 PM
! freq[Hz]                db:S11                  ang:S11                 db:S41                  ang:S41                 db:S14                  ang:S14                 db:S44                  ang:S44
 1.000000000000000E4    -3.690086678406122E1     1.900015844193137      -1.155974904348968E-1   -2.820533564365903E-1   -1.103718022758341E-1   -2.803707159687789E-1   -3.717305115885321E1    -3.586786414959719E-1
 1.011989697596740E4    -3.665267714416984E1     1.449070255985645      -1.107706121982659E-1   -2.922306248302994E-1   -1.097449684262272E-1   -2.777000358758212E-1   -3.715615983807401E1    -9.833982816145636E-1
 1.024123148041938E4    -3.696021641536057E1    -3.420422992805415E-1   -1.130533201396449E-1   -3.069257276333526E-1   -1.088402156850807E-1   -2.583709760411843E-1   -3.685172938196506E1    -2.194223828779137E-1
 1.036402074888782E4    -3.694499078997248E1     1.627135985676428      -1.134262559180221E-1   -3.109763615282474E-1   -1.106059277589051E-1   -2.946260715855071E-1   -3.734585525075848E1    -2.850321671820901
 1.048828222355332E4    -3.700095324412948E1     7.154937085287688E-1   -1.129674074798523E-1   -3.221531937673817E-1   -1.103593629643991E-1   -2.890178051915455E-1   -3.728578635404147E1    -1.066942524822055
 1.061403355572299E4    -3.698995720530651E1     1.865663270930238      -1.095876067806181E-1   -2.794979194722323E-1   -1.151819365497049E-1   -2.369868878830246E-1   -3.704887311488110E1     7.652197597013598E-1
 1.074129260833773E4    -3.711940231808686E1     5.594536098101034E-1   -1.154350440317438E-1   -3.128453294118876E-1   -1.137782467153778E-1   -2.453182576728566E-1   -3.708362314306245E1    -1.257731095781956
 1.087007745850980E4    -3.710074300297980E1     2.335662522935455      -1.162108210894817E-1   -2.913682006204624E-1   -1.063274979636643E-1   -2.591662001289782E-1   -3.682955927051425E1    -2.195726854391768
 1.100040640009047E4    -3.678842929331623E1     1.424288662428634      -1.114189453083382E-1   -2.908206608811513E-1   -1.101747512423101E-1   -2.751487065583770E-1   -3.710989051717037E1    -1.903196545547374
 1.113229794626877E4    -3.701311373894898E1     8.746222955063250E-2   -1.162375969434075E-1   -2.879684886687950E-1   -1.147035585194419E-1   -2.586393799218850E-1   -3.757858212971469E1    -1.242934736456504
 1.126577083220134E4    -3.709781442413424E1     1.872432859897709      -1.152200980789926E-1   -2.896455069504061E-1   -1.113293672770492E-1   -2.707233513870214E-1   -3.734399418257365E1    -2.870530774863462
 1.140084401767360E4    -3.702057990599096E1     1.544532247993726      -1.146360637725617E-1   -2.791547575378301E-1   -1.153744323263574E-1   -2.450847495764210E-1   -3.707012538075040E1    -1.627951578974961E-1
 1.153753668979311E4    -3.741143355813256E1     1.175749123375708      -1.164392820431557E-1   -3.071826667115361E-1   -1.155859187230101E-1   -2.667504530607920E-1   -3.747518728461750E1    -1.174534326761961
 1.167586826571499E4    -3.727442626785083E1     2.478261860296293E-1   -1.191813776879167E-1   -2.988384933772819E-1   -1.145627077036980E-1   -2.507044663549325E-1   -3.737642926285492E1    -6.479270733418658E-1
 1.181585839540028E4    -3.735075980283246E1     7.466532346113013E-1   -1.177776926602947E-1   -2.803843006854496E-1   -1.151183530815417E-1   -2.529448669214037E-1   -3.740210603755204E1    -8.566117649482080E-1
 1.195752696440703E4    -3.746402860122422E1     1.603452684663998      -1.209929647027774E-1   -2.913755728690428E-1   -1.131556448736875E-1   -2.365643504995636E-1   -3.725038469774086E1    -1.352067383674867
 1.210089409671510E4    -3.734463551123804E1     3.368287748876315      -1.187093374641081E-1   -2.559017557871473E-1   -1.125191828928017E-1   -2.584692701989414E-1   -3.752183029500224E1    -1.351562517385099
 1.224598015758489E4    -3.735965326250528E1     1.380539274384051E-1   -1.157733055919734E-1   -2.793503827429315E-1   -1.151191515229499E-1   -2.538498435293131E-1   -3.736815516767420E1    -1.450301141591770
 1.239280575645001E4    -3.731610833986833E1     6.431999906072887E-1   -1.206652198631033E-1   -2.719376463687230E-1   -1.168805561715929E-1   -2.560319018628340E-1   -3.753849967759201E1    -3.967139223799269E-1
 1.254139174984498E4    -3.745544397344882E1     1.445530630775810      -1.206371974582867E-1   -2.817487682575758E-1   -1.189441298808869E-1   -2.435212758046336E-1   -3.766769744167180E1     7.984683630644773E-1
 1.269175924436784E4    -3.769805622856687E1     1.391072422753125      -1.221299817915680E-1   -2.664465924898049E-1   -1.184612802773211E-1   -2.337893444227291E-1   -3.746436198670619E1    -6.994133157282157E-1
 1.284392959967844E4    -3.714438810922560E1    -4.974729157913818E-1   -1.175936556552241E-1   -2.726095186878353E-1   -1.198371372208938E-1   -2.483809035907507E-1   -3.783976791344728E1     9.957752618464139E-1
 1.299792443153239E4    -3.765954820363688E1     2.274487627654212      -1.219661368554703E-1   -2.639068049098235E-1   -1.178837535867938E-1   -2.115923152865469E-1   -3.758492221288500E1     6.368252277183442E-1
 1.315376561485171E4    -3.768445298911469E1    -1.222655910663405E-1   -1.257294556147022E-1   -2.793925905082984E-1   -1.202189507652425E-1   -2.520392182246139E-1   -3.779666189762867E1    -7.397189954452537E-1
 1.331147528683218E4    -3.766705338038560E1     1.248189725778281      -1.260431606198589E-1   -2.588708340380079E-1   -1.201982687201006E-1   -2.406802006840766E-1   -3.771294566253748E1    -4.322528293626441E-1
 1.347107585008777E4    -3.771650272773925E1     1.568433400336213      -1.251069177116921E-1   -2.639372255023625E-1   -1.216051263355238E-1   -2.215958635851366E-1   -3.792620114925349E1    -5.901309849999768E-1
 1.363258997583304E4    -3.771995300067418E1     1.826034153503587      -1.247005476279046E-1   -2.580595156187797E-1   -1.206234774038648E-1   -2.320595406065644E-1   -3.796301047165156E1    -1.581780185737587
 1.379604060710362E4    -3.758526908993810E1    -6.313794535174916E-1   -1.236758833855462E-1   -2.653207966987062E-1   -1.233437257544547E-1   -2.387531590572097E-1   -3.803537148514442E1    -4.452291627171656E-1
 1.396145096201513E4    -3.770002572168846E1     9.803317896231376E-1   -1.259810630397558E-1   -2.573712274274011E-1   -1.232327860036114E-1   -2.298227548729620E-1   -3.785490557269608E1     8.942225574653567E-1
 1.412884453706141E4    -3.775463005711195E1     2.690334871794593      -1.260875460352535E-1   -2.406740979115901E-1   -1.206752094425490E-1   -2.261525705400940E-1   -3.781951954681598E1     7.594242627968109E-2
 1.429824511045209E4    -3.781358332960260E1     1.825182688732471      -1.253737361287144E-1   -2.465292823400500E-1   -1.236374708289966E-1   -2.246487107834633E-1   -3.788968773810626E1    -1.431945841326518E-1
 1.446967674549047E4    -3.793467549187954E1     4.640970142517154E-1   -1.270759711841507E-1   -2.530814225936572E-1   -1.241310490854861E-1   -2.273280825536042E-1   -3.798033633395320E1     7.205105521244615E-1
 1.464316379399148E4    -3.772177747304036E1     1.023660117081511      -1.243589824956316E-1   -2.259850890076196E-1   -1.242896643529367E-1   -2.232139355516289E-1   -3.815612022199772E1     1.386384744007011
 1.481873089974093E4    -3.784004621480322E1     1.868846808664345      -1.259469393295358E-1   -2.342992254220627E-1   -1.250332581899732E-1   -2.154090565065341E-1   -3.797017143620831E1     4.254580055211680E-1
 1.499640300199629E4    -3.794003989361697E1     2.242877986570959      -1.282564594371501E-1   -2.413202985779517E-1   -1.256913610159640E-1   -2.010436495614021E-1   -3.810500463533585E1     2.395930971408942
 1.517620533902906E4    -3.779559445573824E1     8.705008898259537E-1   -1.269080402060844E-1   -2.256105816088742E-1   -1.265722211907473E-1   -2.011892473095400E-1   -3.809275466066150E1     9.016683742371545E-1
 1.535816345171005E4    -3.791821311055183E1     1.501457313310333      -1.265132320721400E-1   -2.283953015055680E-1   -1.250827984424617E-1   -1.978860117547479E-1   -3.802871885005064E1     1.173226745920444
 1.554230318713732E4    -3.787549608869106E1     2.338657397158845      -1.260739613799795E-1   -2.314666016985751E-1   -1.221005990185691E-1   -1.842492206008430E-1   -3.786615380534626E1     1.238609878834670
 1.572865070230794E4    -3.800887197162027E1     1.900834941064002      -1.278697270534322E-1   -2.119177104235820E-1   -1.265203812278696E-1   -2.042514446364382E-1   -3.805257186037630E1     1.460542622108743
 1.591723246783336E4    -3.793440558876532E1     1.706618943810283      -1.275055357107778E-1   -2.156767441809809E-1   -1.256365582693961E-1   -1.993164654190692E-1   -3.812395545095161E1     2.091223435825210E-1
 1.610807527169965E4    -3.813831842726597E1     2.526629747290862      -1.299030940464267E-1   -2.197835881379556E-1   -1.260283992994008E-1   -2.088895207279189E-1   -3.809211556329877E1     8.740543373678623E-1
 1.630120622307285E4    -3.802923105183211E1     1.990685666714244      -1.302287035045563E-1   -2.046657242020731E-1   -1.288878192780491E-1   -1.810723458139488E-1   -3.805377714669844E1     2.354308302728798
 1.649665275614959E4    -3.843837167321114E1     1.732162621719830      -1.315017101865105E-1   -2.365671678725128E-1   -1.289072944450759E-1   -1.780858148346603E-1   -3.818123332583381E1     2.823404691037104
 1.669444263405424E4    -3.819228686998388E1     2.272432835526151      -1.311447659949985E-1   -2.072282947915237E-1   -1.271992206045934E-1   -1.643951662415760E-1   -3.789301931521112E1     3.000056913478806
 1.689460395278264E4    -3.810792457079814E1     1.969889593242926      -1.306817489237665E-1   -1.898841391666836E-1   -1.271552585621429E-1   -1.739267462161925E-1   -3.823702844287149E1     2.204520765101607
 1.709716514519318E4    -3.802785676319903E1     2.731068507800363      -1.331636261968557E-1   -1.968710014629923E-1   -1.282197677449566E-1   -1.712951343527802E-1   -3.822665935779438E1     2.405059159312978
 1.730215498504557E4    -3.814508449667660E1     2.177867151497975      -1.320444928015344E-1   -1.991378705709824E-1   -1.266285258946021E-1   -1.695293843851169E-1   -3.819136217089859E1     1.869517425342216
 1.750960259108815E4    -3.803201770122471E1     3.334359383156201      -1.308617766644550E-1   -1.746216430988308E-1   -1.275153350743837E-1   -1.552267809637934E-1   -3.805878720218526E1     2.439750995299153
 1.771953743119439E4    -3.832733749674021E1     3.528313842004501      -1.317401267671283E-1   -1.994206908803192E-1   -1.290640700149832E-1   -1.717407168374168E-1   -3.822020358728999E1     2.480089343750587
 1.793198932654852E4    -3.817932747082510E1     2.960423585279484      -1.310419000281333E-1   -1.824250483757746E-1   -1.283563859463609E-1   -1.632603336572643E-1   -3.820097693934485E1     3.096627021105924
 1.814698845588179E4    -3.830731128181776E1     2.838238920504288      -1.313053583163401E-1   -1.839424566271827E-1   -1.272998322027280E-1   -1.602542771586635E-1   -3.818501744244723E1     2.203449094816843
 1.836456535975930E4    -3.825467058696331E1     4.184323635423591      -1.322251100858902E-1   -1.757852457547039E-1   -1.287095318890144E-1   -1.584029944660786E-1   -3.833755434168799E1     3.050449265943609
 1.858475094491838E4    -3.827919270826153E1     3.546036456904783      -1.330265686950771E-1   -1.778187314721355E-1   -1.284727171914699E-1   -1.527843643115312E-1   -3.826381541899890E1     2.527814139851089
 1.880757648865867E4    -3.824909806333945E1     4.080349721976801      -1.350242293373162E-1   -1.558468199074401E-1   -1.270302780631541E-1   -1.393476554536863E-1   -3.813914805281387E1     3.005649421996212
 1.903307364328520E4    -3.820967399292024E1     4.105673668568325      -1.338455661165469E-1   -1.739397335584636E-1   -1.304208231120758E-1   -1.419201569963862E-1   -3.827268996678085E1     3.417930519823089
 1.926127444060467E4    -3.819938983940480E1     4.375569959259713      -1.315699978615277E-1   -1.612718452906918E-1   -1.308430130342242E-1   -1.465697302303463E-1   -3.826724989601190E1     3.079360784774534
 1.949221129647533E4    -3.813589670639411E1     5.024821548661648      -1.343820257380199E-1   -1.492425577571933E-1   -1.312870517362099E-1   -1.364986668586182E-1   -3.823384453365342E1     4.234111802988012
 1.972591701541182E4    -3.810672437205309E1     3.461599923027937      -1.332721397627216E-1   -1.557396117443072E-1   -1.308060570484343E-1   -1.384179645170849E-1   -3.827597230121139E1     3.619971564281121
 1.996242479524495E4    -3.823042299154598E1     3.896157736159328      -1.320952927715350E-1   -1.510100142568981E-1   -1.295673275470428E-1   -1.262581984557739E-1   -3.821097505524315E1     4.067190639498858
 2.020176823183760E4    -3.840059096197368E1     4.139508087454171      -1.359825039834838E-1   -1.549616719753106E-1   -1.332100988667521E-1   -1.411926307696281E-1   -3.838685179351396E1     4.466971624411544
 2.044398132385675E4    -3.824247045757106E1     4.436145219679570      -1.329405569467472E-1   -1.403612177312605E-1   -1.311313974383592E-1   -1.289285381446524E-1   -3.827741700133459E1     3.742918869349194
 2.068909847760314E4    -3.818674138789773E1     2.550946623930050      -1.323829412413849E-1   -1.333204139951775E-1   -1.306479032636901E-1   -1.505527875743856E-1   -3.848341728816006E1     4.201666179954896
 2.093715451189877E4    -3.850379970019483E1     3.638579147148418      -1.363311299475075E-1   -1.620027948012805E-1   -1.305315728296811E-1   -1.175612133072927E-1   -3.814110299115482E1     3.902926061726896
 2.118818466303265E4    -3.827404696699718E1     4.834957332067854      -1.353543276470252E-1   -1.316630483889004E-1   -1.320847180588294E-1   -1.224632565797586E-1   -3.826145056715283E1     4.712278887156851
 2.144222458976629E4    -3.827971037894497E1     5.836125524230386      -1.323491817955176E-1   -1.277619113728434E-1   -1.306568863549671E-1   -1.062164687160164E-1   -3.804750273467027E1     5.382024527192567
 2.169931037839892E4    -3.833191666433584E1     4.802334646504054      -1.343176306395110E-1   -1.229908947363382E-1   -1.315880290437151E-1   -1.184557996002961E-1   -3.826660133763878E1     5.059684966916329
 2.195947854789372E4    -3.813405929531203E1     4.494394402567655      -1.331536248465849E-1   -1.201190702792904E-1   -1.306851528221218E-1   -1.076978224268632E-1   -3.815720194998983E1     4.865561265000687
 2.222276605506506E4    -3.835932295899703E1     5.229981263618440      -1.354608588434974E-1   -1.244834311009890E-1   -1.319742912082588E-1   -1.175484965300178E-1   -3.821162880052957E1     4.410973164791421
 2.248921029982833E4    -3.829838502549148E1     5.784654823875671      -1.357933165721399E-1   -1.226979706859510E-1   -1.306447732723647E-1   -9.810506664492245E-2   -3.819432892878795E1     4.638858049019653
 2.275884913051276E4    -3.825582856728624E1     5.364080128660375      -1.327340834098794E-1   -1.130843075178212E-1   -1.309224248167614E-1   -1.057073520878349E-1   -3.819299191263425E1     5.218707220143322
 2.303172084923743E4    -3.825185797323036E1     4.720632976350932      -1.350150349288461E-1   -1.262353568835989E-1   -1.309890850168682E-1   -9.637254685298811E-2   -3.827871526955366E1     5.708697174023695
 2.330786421735231E4    -3.827400877289864E1     3.894466309247528      -1.321498022041600E-1   -1.106113553496326E-1   -1.309308572298352E-1   -9.063946356307943E-2   -3.813646900151393E1     5.369893818600738
 2.358731846094418E4    -3.824394073751888E1     4.866266588393154      -1.328233083504699E-1   -1.157769160234002E-1   -1.311362413590232E-1   -8.232372843694498E-2   -3.819268617649399E1     5.881986661089131
 2.387012327640890E4    -3.831565610250323E1     5.623248311757435      -1.348201366935710E-1   -1.077000762314726E-1   -1.310298303458818E-1   -8.934081028138921E-2   -3.811308829465482E1     4.839065105766788
 2.415631883608994E4    -3.827596708242364E1     5.765314778153021      -1.349162004313488E-1   -1.043220433517960E-1   -1.316075894470161E-1   -9.163509505436702E-2   -3.826825336315886E1     6.138193012509609
 2.444594579398503E4    -3.829035356945290E1     5.265949572897461      -1.357919146001870E-1   -1.055138984446001E-1   -1.319879924272180E-1   -9.013272403822487E-2   -3.812995652574308E1     6.312264294906761
 2.473904529152120E4    -3.826328468627241E1     5.899307497855784      -1.343936714785597E-1   -1.031703472784512E-1   -1.321078808184066E-1   -9.202343248396903E-2   -3.834159637426765E1     6.130974506662998
 2.503565896339859E4    -3.835629236791157E1     5.962603614924648      -1.361554167639062E-1   -9.306830565208581E-2   -1.298483389875134E-1   -9.353387206363602E-2   -3.822792324812460E1     5.434254145776102
 2.533582894350484E4    -3.822051670677037E1     5.168846086895926      -1.330200351216592E-1   -9.273163635626636E-2   -1.311438162933768E-1   -8.424362213670650E-2   -3.818505814584762E1     6.309024106040999
 2.563959787090014E4    -3.808869739089060E1     5.792109229873069      -1.320390818843622E-1   -8.152096359347433E-2   -1.313838688845606E-1   -7.119235796791303E-2   -3.807347956101963E1     6.575618841327546
 2.594700889587424E4    -3.816518296119533E1     5.370789201522034      -1.336823177375177E-1   -8.771248477359943E-2   -1.310908154238995E-1   -8.325424655401359E-2   -3.807397654728460E1     6.574985484382916
 2.625810568607569E4    -3.814968071179117E1     5.427924696389837      -1.346778782628117E-1   -8.819522325190003E-2   -1.316183561904922E-1   -7.013711631743312E-2   -3.817024542502384E1     5.733043464560133
 2.657293243271491E4    -3.814751014584846E1     6.985150279252805      -1.344569628945122E-1   -8.119658681403345E-2   -1.299128332645184E-1   -6.990779497820918E-2   -3.811773602337516E1     6.157897538442102
 2.689153385684176E4    -3.818622190240049E1     6.705161820583837      -1.356673258550425E-1   -7.946422446541912E-2   -1.301142749757400E-1   -5.826140762556414E-2   -3.808583162439962E1     6.092324048968933
 2.721395521569778E4    -3.811167944790821E1     5.541635437046557      -1.334469155479135E-1   -7.681968213741985E-2   -1.310649481438924E-1   -5.955239995382843E-2   -3.794340661456439E1     6.905359663509204
 2.754024230914521E4    -3.819928360270261E1     6.287793153384551      -1.354499277468290E-1   -6.996728425318698E-2   -1.312562759217087E-1   -6.487363101300408E-2   -3.819445191723727E1     6.705856692052514
 2.787044148617274E4    -3.817045076129985E1     5.993752745785764      -1.357457011463490E-1   -7.640314595361321E-2   -1.303419825257266E-1   -5.955082226843219E-2   -3.816495747680504E1     6.145753849075226
 2.820459965147958E4    -3.808889800068474E1     6.537554374609180      -1.323351034547375E-1   -6.016623194288433E-2   -1.290562163490561E-1   -6.814605642118553E-2   -3.807833413791789E1     6.130058989464286
 2.854276427213793E4    -3.813260716209767E1     6.746980344969462      -1.336275020442508E-1   -7.147859828035640E-2   -1.302646826687882E-1   -5.886160099622149E-2   -3.802524123172483E1     5.610980982176815
 2.888498338433582E4    -3.804633628921579E1     6.590551669679557      -1.333092935509942E-1   -5.991588164894288E-2   -1.293584375627594E-1   -5.205704170178461E-2   -3.798596428637080E1     6.284639157546220
 2.923130560020086E4    -3.800230799140242E1     6.416346862622406      -1.330066725288828E-1   -5.758716831566125E-2   -1.308511113250267E-1   -5.194958963198013E-2   -3.807698485187822E1     6.384125509430238
 2.958178011470515E4    -3.819132057772210E1     6.385785428131399      -1.328051650455783E-1   -5.994138341764403E-2   -1.322298451652435E-1   -4.861612941734524E-2   -3.796722327298687E1     7.116189042347731
