#  HZ   S   DB   R     50.00 
! Rohde & Schwarz ZVA40 2Ports - Version 2.79 - 1145.1110k40 SN: 100272
! Date: 2023-03-21 17:30:12
! Measurement: S11 
! 
 1.000000000000000E8    -2.859591125096597E-3  -2.031973097585703E1  
 1.100000000000000E8     3.937400465782087E-3  -2.212269976945211E1  
 1.200000000000000E8     9.910456375951586E-4  -2.430772743385065E1  
 1.300000000000000E8    -7.470666557537886E-3  -2.636024554740994E1  
 1.400000000000000E8    -2.684250113738761E-4  -2.853392091863827E1  
 1.500000000000000E8    -2.987805385949208E-3  -3.041469618135014E1  
 1.600000000000000E8     6.432303474574488E-3  -3.252426603172357E1  
 1.700000000000000E8     1.364749328332013E-2  -3.463012153795341E1  
 1.800000000000000E8     3.594495481070472E-3  -3.674930106132374E1  
 1.900000000000000E8    -3.163988083882592E-4  -3.877895732747066E1  
 2.000000000000000E8     2.756420731931705E-2  -4.100823637756278E1  
 2.100000000000000E8     3.010920883244975E-3  -4.308285659711988E1  
 2.200000000000000E8     9.705106866311899E-3  -4.520013323807392E1  
 2.300000000000000E8     4.731273929948095E-3  -4.733541011415042E1  
 2.400000000000000E8    -2.061024146595941E-3  -4.952445142932125E1  
 2.500000000000000E8     7.779774320451233E-3  -5.174384408715506E1  
 2.600000000000000E8     8.206726483121818E-3  -5.396778980949315E1  
 2.700000000000000E8     1.137813050043018E-2  -5.613350740131273E1  
 2.800000000000000E8    -2.676089715102920E-4  -5.835083520265231E1  
 2.900000000000000E8    -1.312406827221140E-5  -6.066453834066913E1  
 3.000000000000000E8    -3.974142986997117E-3  -6.293899992387630E1  
 3.100000000000000E8    -1.576202039618743E-3  -6.527657327955339E1  
 3.200000000000000E8    -1.548595215330192E-2  -6.753754967049056E1  
 3.300000000000000E8    -1.292697299536686E-2  -6.997302491234254E1  
 3.400000000000000E8    -1.773964560115859E-2  -7.227101920991203E1  
 3.500000000000000E8    -2.390460685225353E-2  -7.470466019818527E1  
 3.600000000000000E8    -2.679131111270850E-2  -7.714247798278490E1  
 3.700000000000000E8    -2.826684578929772E-2  -7.963413368196375E1  
 3.800000000000000E8    -3.274925627450868E-2  -8.213116856702111E1  
 3.900000000000000E8    -4.660930574895379E-2  -8.465129938957099E1  
 4.000000000000000E8    -5.404042022298096E-2  -8.717570264371473E1  
 4.100000000000000E8    -5.909894988304914E-2  -8.977543605031778E1  
 4.200000000000000E8    -5.747753839930563E-2  -9.245867618866795E1  
 4.300000000000000E8    -6.650645747130897E-2  -9.520802255040294E1  
 4.400000000000000E8    -7.761966185228307E-2  -9.811110900450750E1  
 4.500000000000000E8    -9.183232295918328E-2  -1.011097050240947E2  
 4.600000000000000E8    -1.252518806648352E-1  -1.041996609592671E2  
 4.700000000000000E8    -1.693053014735304E-1  -1.074480963074569E2  
 4.800000000000000E8    -2.480388949144056E-1  -1.108948961550031E2  
 4.900000000000000E8    -4.084448982637797E-1  -1.144580743292639E2  
 5.000000000000000E8    -6.773015916079079E-1  -1.181641130652095E2  
 5.100000000000000E8    -9.994557888333316E-1  -1.205653723707747E2  
 5.200000000000000E8    -1.261403658503713  -1.220335875119921E2  
 5.300000000000000E8    -1.404669635723213  -1.235230332366735E2  
 5.400000000000000E8    -1.505275945904272  -1.252715691063794E2  
 5.500000000000000E8    -1.540317048488199  -1.279710384724613E2  
 5.600000000000000E8    -2.140444637455585  -1.296960612353722E2  
 5.700000000000000E8    -2.040054767110537  -1.272877627051166E2  
 5.800000000000000E8    -1.613743475442538  -1.281816671743980E2  
 5.900000000000000E8    -1.250618850374384  -1.309805828350837E2  
 6.000000000000000E8    -1.084791928902884  -1.347619091677159E2  
 6.100000000000000E8    -9.542692059932793E-1  -1.377840356322976E2  
 6.200000000000000E8    -8.899942590242431E-1  -1.418780673931557E2  
 6.300000000000000E8    -9.181750462879906E-1  -1.452524706765910E2  
 6.400000000000000E8    -8.842602656066407E-1  -1.485027707849071E2  
 6.500000000000000E8    -9.154671018756556E-1  -1.520940422953890E2  
 6.600000000000000E8    -9.655658939096747E-1  -1.552263452678130E2  
 6.700000000000000E8    -9.442713286577714E-1  -1.583972693191093E2  
 6.800000000000000E8    -9.811802311158379E-1  -1.612004117576157E2  
 6.900000000000000E8    -8.708375478938616E-1  -1.645461795907416E2  
 7.000000000000000E8    -8.397098570185013E-1  -1.681839947697807E2  
 7.100000000000000E8    -8.121375449484900E-1  -1.717788659491360E2  
 7.200000000000000E8    -7.829298785920251E-1  -1.758227694858425E2  
 7.300000000000000E8    -8.023046142145589E-1  -1.797366422514034E2  
 7.400000000000000E8    -8.671067812599945E-1   1.763406998378177E2  
 7.500000000000000E8    -9.100225959150811E-1   1.727695995888658E2  
 7.600000000000000E8    -9.222934044000847E-1   1.690031261024983E2  
 7.700000000000000E8    -9.381156094237250E-1   1.651458640519251E2  
 7.800000000000000E8    -9.791360060758707E-1   1.613679216066548E2  
 7.900000000000000E8    -9.525082334099998E-1   1.577171145302478E2  
 8.000000000000000E8    -9.337416065412368E-1   1.536584350970961E2  
 8.100000000000000E8    -9.172391684504082E-1   1.495058670330732E2  
 8.200000000000000E8    -9.186181552866944E-1   1.451803041152608E2  
 8.300000000000000E8    -8.943322145070675E-1   1.408742782758172E2  
 8.400000000000000E8    -8.762630093684372E-1   1.361610323370217E2  
 8.500000000000000E8    -9.268517502351142E-1   1.312473888328707E2  
 8.600000000000000E8    -1.014267460001102   1.266077008738215E2  
 8.700000000000000E8    -1.076576340119846   1.220204245106316E2  
 8.800000000000000E8    -1.142624901003125   1.172510789298198E2  
 8.900000000000000E8    -1.249014419366573   1.125498165687687E2  
 9.000000000000000E8    -1.312046654825580   1.080160504406189E2  
 9.100000000000000E8    -1.433812505545488   1.030467246777291E2  
 9.200000000000000E8    -1.601021104152003   9.848862850517271E1  
 9.300000000000000E8    -1.711057354148609   9.456955178304816E1  
 9.400000000000000E8    -1.795077493524917   9.072281451963112E1  
 9.500000000000000E8    -1.744375811074785   8.597268364262233E1  
 9.600000000000000E8    -1.844011494510042   8.100564404095758E1  
 9.700000000000000E8    -1.923107318945998   7.647939380512636E1  
 9.800000000000000E8    -1.917992916233817   7.187103194908482E1  
 9.900000000000000E8    -1.983910031255348   6.646256673504765E1  
 1.000000000000000E9    -2.114020292454081   6.112823031022931E1  
 1.010000000000000E9    -2.229682993229240   5.638837711707119E1  
 1.020000000000000E9    -2.370534977099348   5.039084277223487E1  
 1.030000000000000E9    -2.738396982006363   4.621429741824804E1  
 1.040000000000000E9    -2.804911684949766   4.151262473162588E1  
 1.050000000000000E9    -3.035609546387985   3.741651434921195E1  
 1.060000000000000E9    -3.277327408202690   3.217330127815696E1  
 1.070000000000000E9    -3.455508445282860   2.861658951363627E1  
 1.080000000000000E9    -3.665187821658309   2.467674217712651E1  
 1.090000000000000E9    -3.743858068335030   1.995496088191989E1  
 1.100000000000000E9    -3.953227607258733   1.583455043189711E1  
 1.110000000000000E9    -4.124079280158280   1.140432477043902E1  
 1.120000000000000E9    -4.279360931033927   7.510897501858945  
 1.130000000000000E9    -4.400939934306638   1.508981716835621  
 1.140000000000000E9    -4.850231605669436  -3.893466837027911  
 1.150000000000000E9    -5.444500033461742  -8.281788485769052  
 1.160000000000000E9    -5.995013763283501  -1.002542462144948E1  
 1.170000000000000E9    -6.138604929205009  -1.323852688651720E1  
 1.180000000000000E9    -6.831867416437701  -1.722874837315672E1  
 1.190000000000000E9    -7.555843629551965  -1.837950662438979E1  
 1.200000000000000E9    -7.985036080343551  -1.681385920303254E1  
 1.210000000000000E9    -7.952167960431085  -1.486927450394082E1  
 1.220000000000000E9    -7.886734478711737  -1.669548358060177E1  
 1.230000000000000E9    -7.854001984425257  -1.669563245307820E1  
 1.240000000000000E9    -7.448040764931297  -1.713756673222922E1  
 1.250000000000000E9    -7.332975923624668  -2.158320466952005E1  
 1.260000000000000E9    -7.366028426346056  -2.577006830531893E1  
 1.270000000000000E9    -7.775787481426247  -2.544374844077393E1  
 1.280000000000000E9    -7.557360579436235  -2.530404265182942E1  
 1.290000000000000E9    -7.283718129420937  -2.970769198408102E1  
 1.300000000000000E9    -7.636938771853027  -3.012229345729303E1  
 1.310000000000000E9    -7.282791605131937  -3.031570925035314E1  
 1.320000000000000E9    -7.115139655179567  -3.323560364252078E1  
 1.330000000000000E9    -6.926463242606437  -3.397392755564288E1  
 1.340000000000000E9    -6.694693862647147  -3.720566884443403E1  
 1.350000000000000E9    -6.428918441160146  -3.839130083991691E1  
 1.360000000000000E9    -6.134850627866112  -4.196339627141292E1  
 1.370000000000000E9    -5.996729305068829  -4.464699283169392E1  
 1.380000000000000E9    -5.821389461563391  -4.767815378851763E1  
 1.390000000000000E9    -5.536512380799974  -5.152788833213759E1  
 1.400000000000000E9    -5.556305033269863  -5.558840367251310E1  
 1.410000000000000E9    -5.645035788498480  -5.814260623329240E1  
 1.420000000000000E9    -5.497446446493566  -6.039365541100362E1  
 1.430000000000000E9    -5.391282788655448  -6.369388336750015E1  
 1.440000000000000E9    -5.384175122163878  -6.646330893746624E1  
 1.450000000000000E9    -5.349486264974577  -6.855791701205486E1  
 1.460000000000000E9    -5.110123032103944  -7.098848133344787E1  
 1.470000000000000E9    -4.964665269882666  -7.413404717065893E1  
 1.480000000000000E9    -4.866871630397973  -7.707525486620145E1  
 1.490000000000000E9    -4.741307701738040  -8.014066027645021E1  
 1.500000000000000E9    -4.570100957911417  -8.307534985970449E1  
 1.510000000000000E9    -4.363766879068188  -8.642920292457625E1  
 1.520000000000000E9    -4.306323885163379  -9.029393174468764E1  
 1.530000000000000E9    -4.172460522016507  -9.369801091525483E1  
 1.540000000000000E9    -3.985818928091597  -9.793395086063747E1  
 1.550000000000000E9    -4.008728882089341  -1.028066856837896E2  
 1.560000000000000E9    -4.130976834798831  -1.070468446441861E2  
 1.570000000000000E9    -4.272163843291854  -1.106809178706151E2  
 1.580000000000000E9    -4.486541599548409  -1.137914045477580E2  
 1.590000000000000E9    -4.618178440473372  -1.160204203635410E2  
 1.600000000000000E9    -4.647940431505278  -1.176631984229248E2  
 1.610000000000000E9    -4.511401435285150  -1.205631114657288E2  
 1.620000000000000E9    -4.528788174428982  -1.233935222206314E2  
 1.630000000000000E9    -4.381950739477421  -1.256971672233496E2  
 1.640000000000000E9    -4.172416683493239  -1.292038649082745E2  
 1.650000000000000E9    -4.103185120188114  -1.339297845669189E2  
 1.660000000000000E9    -4.134784363029223  -1.376134101767592E2  
 1.670000000000000E9    -4.093150537359922  -1.421214831110158E2  
 1.680000000000000E9    -4.290397520193525  -1.466460309077856E2  
 1.690000000000000E9    -4.440341253890584  -1.495512270383304E2  
 1.700000000000000E9    -4.519956007265110  -1.533662066605015E2  
 1.710000000000000E9    -4.668394671152280  -1.573744185920056E2  
 1.720000000000000E9    -4.952264670371069  -1.606861687597698E2  
 1.730000000000000E9    -5.180990333150700  -1.630271353508326E2  
 1.740000000000000E9    -5.222498955608173  -1.649930976054099E2  
 1.750000000000000E9    -5.318683438200105  -1.679088432835191E2  
 1.760000000000000E9    -5.405146021979716  -1.704680204871214E2  
 1.770000000000000E9    -5.392844965795302  -1.723897676202049E2  
 1.780000000000000E9    -5.203518729037800  -1.759156060684845E2  
 1.790000000000000E9    -5.134644848603246  -1.795435514970166E2  
 1.800000000000000E9    -5.175229589057462   1.763813635303240E2  
 1.810000000000000E9    -5.168782512851174   1.718103096551504E2  
 1.820000000000000E9    -5.312066010764382   1.671711667406530E2  
 1.830000000000000E9    -5.470198352119142   1.631987513573197E2  
 1.840000000000000E9    -5.616297020148864   1.585025628371063E2  
 1.850000000000000E9    -5.940306713937916   1.539517125715948E2  
 1.860000000000000E9    -6.407219387867518   1.505755610800393E2  
 1.870000000000000E9    -6.697942277219585   1.481862701386150E2  
 1.880000000000000E9    -6.924051156044891   1.459710106671301E2  
 1.890000000000000E9    -6.971153017057100   1.435977969764144E2  
 1.900000000000000E9    -7.037319522094800   1.406897509161640E2  
 1.910000000000000E9    -7.025758853202203   1.365726576917956E2  
 1.920000000000000E9    -7.148657069173368   1.326451995831286E2  
 1.930000000000000E9    -7.273559067558580   1.281979882211685E2  
 1.940000000000000E9    -7.425363493504634   1.232454840371062E2  
 1.950000000000000E9    -7.730373083443852   1.183854099973178E2  
 1.960000000000000E9    -8.159570407632931   1.128617775250671E2  
 1.970000000000000E9    -8.647537690286310   1.083810288614248E2  
 1.980000000000000E9    -9.360183690578699   1.044493953417569E2  
 1.990000000000000E9    -9.829641736142945   1.021394762782031E2  
 2.000000000000000E9    -1.037815763931873E1   9.942242049770721E1  
 2.010000000000000E9    -1.087111079607410E1   9.646215794190232E1  
 2.020000000000000E9    -1.157177257781475E1   9.510241379581262E1  
 2.030000000000000E9    -1.197762904707431E1   9.472561491686470E1  
 2.040000000000000E9    -1.181432323929367E1   9.465275180092709E1  
 2.050000000000000E9    -1.203864897700657E1   9.086710881920989E1  
 2.060000000000000E9    -1.179555034286492E1   8.826029297702542E1  
 2.070000000000000E9    -1.190679052065071E1   8.082135313738868E1  
 2.080000000000000E9    -1.260230568762186E1   7.341975531587846E1  
 2.090000000000000E9    -1.333884588819977E1   6.893973976590176E1  
 2.100000000000000E9    -1.387993442791439E1   6.387177658091220E1  
 2.110000000000000E9    -1.494625247873592E1   5.474389360627689E1  
 2.120000000000000E9    -1.668594956478712E1   4.979452952010457E1  
 2.130000000000000E9    -1.890199887164499E1   4.808899523053843E1  
 2.140000000000000E9    -2.086329491911483E1   5.606529374359674E1  
 2.150000000000000E9    -2.158415986248896E1   5.943815667280126E1  
 2.160000000000000E9    -2.247418551806272E1   7.198299685406140E1  
 2.170000000000000E9    -2.177542705975490E1   7.810911946615720E1  
 2.180000000000000E9    -2.130826283449652E1   7.443607081218691E1  
 2.190000000000000E9    -2.240317056227865E1   6.903332930656332E1  
 2.200000000000000E9    -2.462501862497640E1   7.152291155428668E1  
 2.210000000000000E9    -2.471199756963726E1   8.324653293212940E1  
 2.220000000000000E9    -2.559862819688211E1   7.998594545562952E1  
 2.230000000000000E9    -2.827762515351328E1   9.681309606931028E1  
 2.240000000000000E9    -2.771316355206171E1   1.212238431136831E2  
 2.250000000000000E9    -2.515276599193314E1   1.340836662968593E2  
 2.260000000000000E9    -2.329780728030889E1   1.419695044650212E2  
 2.270000000000000E9    -2.098062915733036E1   1.459744832188561E2  
 2.280000000000000E9    -1.824130558050354E1   1.411023218019152E2  
 2.290000000000000E9    -1.731637686003392E1   1.318577173735447E2  
 2.300000000000000E9    -1.679093139691246E1   1.262775234141301E2  
 2.310000000000000E9    -1.586200659775629E1   1.225104509027568E2  
 2.320000000000000E9    -1.551276296893807E1   1.150647385765393E2  
 2.330000000000000E9    -1.523684545234459E1   1.109132373764540E2  
 2.340000000000000E9    -1.516530043686492E1   1.065480284664821E2  
 2.350000000000000E9    -1.483890602432365E1   1.036195710696332E2  
 2.360000000000000E9    -1.488851478887387E1   1.010463340192364E2  
 2.370000000000000E9    -1.456805965854294E1   1.014557778222856E2  
 2.380000000000000E9    -1.378517686682530E1   9.740220606273986E1  
 2.390000000000000E9    -1.378022103575792E1   9.366857303736197E1  
 2.400000000000000E9    -1.335581679086146E1   9.170156281678135E1  
 2.410000000000000E9    -1.297253035816019E1   8.867282198093875E1  
 2.420000000000000E9    -1.251379611788357E1   8.529955867475698E1  
 2.430000000000000E9    -1.204692413322744E1   8.180351109009062E1  
 2.440000000000000E9    -1.160624076446810E1   7.692515659357626E1  
 2.450000000000000E9    -1.138439761782101E1   7.172950781730256E1  
 2.460000000000000E9    -1.129096156859225E1   6.728416827560044E1  
 2.470000000000000E9    -1.104409119657836E1   6.427254657203737E1  
 2.480000000000000E9    -1.061724340394387E1   5.953031859635681E1  
 2.490000000000000E9    -1.031762454649250E1   5.400724210078226E1  
 2.500000000000000E9    -1.035354335144004E1   4.900179872868065E1  
 2.510000000000000E9    -1.024693151075201E1   4.389589950165200E1  
 2.520000000000000E9    -1.027118088706130E1   3.942142131392413E1  
 2.530000000000000E9    -1.038594609681087E1   3.526797334871963E1  
 2.540000000000000E9    -1.032612929750652E1   3.208302230099398E1  
 2.550000000000000E9    -1.023448162511672E1   2.836187024104966E1  
 2.560000000000000E9    -1.019819534061328E1   2.466400492374519E1  
 2.570000000000000E9    -1.011833725078338E1   2.141289311027673E1  
 2.580000000000000E9    -9.804445909551617   1.797571670279183E1  
 2.590000000000000E9    -9.649977353257363   1.350192130368518E1  
 2.600000000000000E9    -9.509368676607418   8.933758892947980  
 2.610000000000000E9    -9.429198362978420   4.188861898399860  
 2.620000000000000E9    -9.386377928385210  -1.108452752412085E-1  
 2.630000000000000E9    -9.237702829087027  -5.243617539027507  
 2.640000000000000E9    -9.211971817633568  -1.006568621031147E1  
 2.650000000000000E9    -9.206790042125419  -1.462398194680656E1  
 2.660000000000000E9    -9.192053047607232  -2.062002572361613E1  
 2.670000000000000E9    -9.417598918856536  -2.530044048540608E1  
 2.680000000000000E9    -9.490921703730153  -2.887099957468102E1  
 2.690000000000000E9    -9.460343771438204  -3.340491890427564E1  
 2.700000000000000E9    -9.708519141026121  -3.886838089117274E1  
 2.710000000000000E9    -9.936938468551798  -4.161341786709357E1  
 2.720000000000000E9    -1.003307242755347E1  -4.503261102061693E1  
 2.730000000000000E9    -1.015040511966441E1  -4.758184458443669E1  
 2.740000000000000E9    -1.001267091832309E1  -5.034915136434755E1  
 2.750000000000000E9    -9.815570702793963  -5.437830450619176E1  
 2.760000000000000E9    -9.797764325563852  -5.772773557378244E1  
 2.770000000000000E9    -9.475486082863851  -6.192422027193027E1  
 2.780000000000000E9    -9.312562095227250  -6.804722330172703E1  
 2.790000000000000E9    -9.312843857023948  -7.353737151599771E1  
 2.800000000000000E9    -9.287779295668033  -7.939309484466226E1  
 2.810000000000000E9    -9.489386515968223  -8.613626544680759E1  
 2.820000000000000E9    -9.817428462541932  -9.040471938725625E1  
 2.830000000000000E9    -1.007930558601359E1  -9.462471215373678E1  
 2.840000000000000E9    -1.014377564798115E1  -9.900064144793765E1  
 2.850000000000000E9    -1.024768283444635E1  -1.036789781718751E2  
 2.860000000000000E9    -1.057653614004747E1  -1.095897273009551E2  
 2.870000000000000E9    -1.097786573223341E1  -1.133681141077940E2  
 2.880000000000000E9    -1.141490081744082E1  -1.160354618452879E2  
 2.890000000000000E9    -1.150854665800748E1  -1.166626783261776E2  
 2.900000000000000E9    -1.126921698273020E1  -1.195137705261113E2  
 2.910000000000000E9    -1.105491575684459E1  -1.232428848408162E2  
 2.920000000000000E9    -1.089827806593555E1  -1.273851795454796E2  
 2.930000000000000E9    -1.059167838600439E1  -1.336574938355515E2  
 2.940000000000000E9    -1.064030472254573E1  -1.402879255188858E2  
 2.950000000000000E9    -1.083797074118088E1  -1.475440174959566E2  
 2.960000000000000E9    -1.114534305329087E1  -1.539262145052777E2  
 2.970000000000000E9    -1.154577426751325E1  -1.601391947326993E2  
 2.980000000000000E9    -1.213166395203035E1  -1.656366087665974E2  
 2.990000000000000E9    -1.264436061007205E1  -1.694071005964403E2  
 3.000000000000000E9    -1.317849545049939E1  -1.729696330953689E2  
